C:\Users\chris\.conda\envs\fronius-smart-meter-emulator\python.exe D:\Git\fronius-smart-meter-emulator\main.py
2024-08-16 19:41:18,324 INFO [16020,MainThread] [root] [main.py:87]: Updating values, netzbezug=1000.000000, einspeisung=1000.000000, leistung=-1.000000
2024-08-16 19:41:18,324 DEBUG [16020,MainThread] [pymodbus.logging] [logging.py:103]: setValues[3] address-40072: count-90
2024-08-16 19:41:18,325 DEBUG [16020,MainThread] [pymodbus.logging] [logging.py:103]: Awaiting connections server_listener
2024-08-16 19:41:18,325 INFO [16020,MainThread] [pymodbus.logging] [logging.py:97]: Server listening.
2024-08-16 19:42:07,364 DEBUG [16020,MainThread] [pymodbus.logging] [logging.py:103]: Connected to server
2024-08-16 19:42:07,365 DEBUG [16020,MainThread] [pymodbus.logging] [logging.py:103]: recv: 0x0 0x1 0x0 0x0 0x0 0x6 0x2 0x3 0x3 0x0 0x0 0x1 old_data:  addr=None
2024-08-16 19:42:07,365 DEBUG [16020,MainThread] [pymodbus.logging] [logging.py:103]: Handling data: 0x0 0x1 0x0 0x0 0x0 0x6 0x2 0x3 0x3 0x0 0x0 0x1
2024-08-16 19:42:07,365 DEBUG [16020,MainThread] [pymodbus.logging] [logging.py:103]: Processing: 0x0 0x1 0x0 0x0 0x0 0x6 0x2 0x3 0x3 0x0 0x0 0x1
2024-08-16 19:42:07,365 DEBUG [16020,MainThread] [pymodbus.logging] [logging.py:103]: Factory Request[ReadHoldingRegistersRequest': 3]
2024-08-16 19:42:07,365 DEBUG [16020,MainThread] [pymodbus.logging] [logging.py:103]: validate: fc-[3] address-769: count-1
2024-08-16 19:42:07,365 ERROR [16020,MainThread] [pymodbus.logging] [logging.py:115]: Exception response Exception Response(131, 3, IllegalAddress)
2024-08-16 19:42:07,365 DEBUG [16020,MainThread] [pymodbus.logging] [logging.py:103]: send: 0x0 0x1 0x0 0x0 0x0 0x3 0x2 0x83 0x2
2024-08-16 19:42:07,374 DEBUG [16020,MainThread] [pymodbus.logging] [logging.py:103]: recv: 0x0 0x2 0x0 0x0 0x0 0x6 0x2 0x3 0x3 0x0 0x0 0x1 old_data:  addr=None
2024-08-16 19:42:07,374 DEBUG [16020,MainThread] [pymodbus.logging] [logging.py:103]: Handling data: 0x0 0x2 0x0 0x0 0x0 0x6 0x2 0x3 0x3 0x0 0x0 0x1
2024-08-16 19:42:07,374 DEBUG [16020,MainThread] [pymodbus.logging] [logging.py:103]: Processing: 0x0 0x2 0x0 0x0 0x0 0x6 0x2 0x3 0x3 0x0 0x0 0x1
2024-08-16 19:42:07,374 DEBUG [16020,MainThread] [pymodbus.logging] [logging.py:103]: Factory Request[ReadHoldingRegistersRequest': 3]
2024-08-16 19:42:07,375 DEBUG [16020,MainThread] [pymodbus.logging] [logging.py:103]: validate: fc-[3] address-769: count-1
2024-08-16 19:42:07,375 ERROR [16020,MainThread] [pymodbus.logging] [logging.py:115]: Exception response Exception Response(131, 3, IllegalAddress)
2024-08-16 19:42:07,375 DEBUG [16020,MainThread] [pymodbus.logging] [logging.py:103]: send: 0x0 0x2 0x0 0x0 0x0 0x3 0x2 0x83 0x2
2024-08-16 19:42:07,377 DEBUG [16020,MainThread] [pymodbus.logging] [logging.py:103]: recv: 0x0 0x3 0x0 0x0 0x0 0x6 0x2 0x3 0x3 0x0 0x0 0x1 old_data:  addr=None
2024-08-16 19:42:07,378 DEBUG [16020,MainThread] [pymodbus.logging] [logging.py:103]: Handling data: 0x0 0x3 0x0 0x0 0x0 0x6 0x2 0x3 0x3 0x0 0x0 0x1
2024-08-16 19:42:07,378 DEBUG [16020,MainThread] [pymodbus.logging] [logging.py:103]: Processing: 0x0 0x3 0x0 0x0 0x0 0x6 0x2 0x3 0x3 0x0 0x0 0x1
2024-08-16 19:42:07,378 DEBUG [16020,MainThread] [pymodbus.logging] [logging.py:103]: Factory Request[ReadHoldingRegistersRequest': 3]
2024-08-16 19:42:07,378 DEBUG [16020,MainThread] [pymodbus.logging] [logging.py:103]: validate: fc-[3] address-769: count-1
2024-08-16 19:42:07,378 ERROR [16020,MainThread] [pymodbus.logging] [logging.py:115]: Exception response Exception Response(131, 3, IllegalAddress)
2024-08-16 19:42:07,378 DEBUG [16020,MainThread] [pymodbus.logging] [logging.py:103]: send: 0x0 0x3 0x0 0x0 0x0 0x3 0x2 0x83 0x2
2024-08-16 19:42:07,383 DEBUG [16020,MainThread] [pymodbus.logging] [logging.py:103]: recv: 0x0 0x4 0x0 0x0 0x0 0x6 0x2 0x3 0x6 0xaa 0x0 0x1 old_data:  addr=None
2024-08-16 19:42:07,383 DEBUG [16020,MainThread] [pymodbus.logging] [logging.py:103]: Handling data: 0x0 0x4 0x0 0x0 0x0 0x6 0x2 0x3 0x6 0xaa 0x0 0x1
2024-08-16 19:42:07,383 DEBUG [16020,MainThread] [pymodbus.logging] [logging.py:103]: Processing: 0x0 0x4 0x0 0x0 0x0 0x6 0x2 0x3 0x6 0xaa 0x0 0x1
2024-08-16 19:42:07,383 DEBUG [16020,MainThread] [pymodbus.logging] [logging.py:103]: Factory Request[ReadHoldingRegistersRequest': 3]
2024-08-16 19:42:07,383 DEBUG [16020,MainThread] [pymodbus.logging] [logging.py:103]: validate: fc-[3] address-1707: count-1
2024-08-16 19:42:07,383 ERROR [16020,MainThread] [pymodbus.logging] [logging.py:115]: Exception response Exception Response(131, 3, IllegalAddress)
2024-08-16 19:42:07,383 DEBUG [16020,MainThread] [pymodbus.logging] [logging.py:103]: send: 0x0 0x4 0x0 0x0 0x0 0x3 0x2 0x83 0x2
2024-08-16 19:42:07,386 DEBUG [16020,MainThread] [pymodbus.logging] [logging.py:103]: recv: 0x0 0x5 0x0 0x0 0x0 0x6 0x2 0x3 0x6 0xaa 0x0 0x1 old_data:  addr=None
2024-08-16 19:42:07,386 DEBUG [16020,MainThread] [pymodbus.logging] [logging.py:103]: Handling data: 0x0 0x5 0x0 0x0 0x0 0x6 0x2 0x3 0x6 0xaa 0x0 0x1
2024-08-16 19:42:07,386 DEBUG [16020,MainThread] [pymodbus.logging] [logging.py:103]: Processing: 0x0 0x5 0x0 0x0 0x0 0x6 0x2 0x3 0x6 0xaa 0x0 0x1
2024-08-16 19:42:07,386 DEBUG [16020,MainThread] [pymodbus.logging] [logging.py:103]: Factory Request[ReadHoldingRegistersRequest': 3]
2024-08-16 19:42:07,386 DEBUG [16020,MainThread] [pymodbus.logging] [logging.py:103]: validate: fc-[3] address-1707: count-1
2024-08-16 19:42:07,386 ERROR [16020,MainThread] [pymodbus.logging] [logging.py:115]: Exception response Exception Response(131, 3, IllegalAddress)
2024-08-16 19:42:07,386 DEBUG [16020,MainThread] [pymodbus.logging] [logging.py:103]: send: 0x0 0x5 0x0 0x0 0x0 0x3 0x2 0x83 0x2
2024-08-16 19:42:07,389 DEBUG [16020,MainThread] [pymodbus.logging] [logging.py:103]: recv: 0x0 0x6 0x0 0x0 0x0 0x6 0x2 0x3 0x6 0xaa 0x0 0x1 old_data:  addr=None
2024-08-16 19:42:07,389 DEBUG [16020,MainThread] [pymodbus.logging] [logging.py:103]: Handling data: 0x0 0x6 0x0 0x0 0x0 0x6 0x2 0x3 0x6 0xaa 0x0 0x1
2024-08-16 19:42:07,389 DEBUG [16020,MainThread] [pymodbus.logging] [logging.py:103]: Processing: 0x0 0x6 0x0 0x0 0x0 0x6 0x2 0x3 0x6 0xaa 0x0 0x1
2024-08-16 19:42:07,389 DEBUG [16020,MainThread] [pymodbus.logging] [logging.py:103]: Factory Request[ReadHoldingRegistersRequest': 3]
2024-08-16 19:42:07,389 DEBUG [16020,MainThread] [pymodbus.logging] [logging.py:103]: validate: fc-[3] address-1707: count-1
2024-08-16 19:42:07,389 ERROR [16020,MainThread] [pymodbus.logging] [logging.py:115]: Exception response Exception Response(131, 3, IllegalAddress)
2024-08-16 19:42:07,389 DEBUG [16020,MainThread] [pymodbus.logging] [logging.py:103]: send: 0x0 0x6 0x0 0x0 0x0 0x3 0x2 0x83 0x2
2024-08-16 19:42:07,392 DEBUG [16020,MainThread] [pymodbus.logging] [logging.py:103]: recv: 0x0 0x7 0x0 0x0 0x0 0x6 0x2 0x3 0x6 0xaa 0x0 0x1 old_data:  addr=None
2024-08-16 19:42:07,392 DEBUG [16020,MainThread] [pymodbus.logging] [logging.py:103]: Handling data: 0x0 0x7 0x0 0x0 0x0 0x6 0x2 0x3 0x6 0xaa 0x0 0x1
2024-08-16 19:42:07,392 DEBUG [16020,MainThread] [pymodbus.logging] [logging.py:103]: Processing: 0x0 0x7 0x0 0x0 0x0 0x6 0x2 0x3 0x6 0xaa 0x0 0x1
2024-08-16 19:42:07,392 DEBUG [16020,MainThread] [pymodbus.logging] [logging.py:103]: Factory Request[ReadHoldingRegistersRequest': 3]
2024-08-16 19:42:07,392 DEBUG [16020,MainThread] [pymodbus.logging] [logging.py:103]: validate: fc-[3] address-1707: count-1
2024-08-16 19:42:07,393 ERROR [16020,MainThread] [pymodbus.logging] [logging.py:115]: Exception response Exception Response(131, 3, IllegalAddress)
2024-08-16 19:42:07,393 DEBUG [16020,MainThread] [pymodbus.logging] [logging.py:103]: send: 0x0 0x7 0x0 0x0 0x0 0x3 0x2 0x83 0x2
2024-08-16 19:42:07,395 DEBUG [16020,MainThread] [pymodbus.logging] [logging.py:103]: recv: 0x0 0x8 0x0 0x0 0x0 0x6 0x2 0x3 0x6 0xaa 0x0 0x1 old_data:  addr=None
2024-08-16 19:42:07,395 DEBUG [16020,MainThread] [pymodbus.logging] [logging.py:103]: Handling data: 0x0 0x8 0x0 0x0 0x0 0x6 0x2 0x3 0x6 0xaa 0x0 0x1
2024-08-16 19:42:07,396 DEBUG [16020,MainThread] [pymodbus.logging] [logging.py:103]: Processing: 0x0 0x8 0x0 0x0 0x0 0x6 0x2 0x3 0x6 0xaa 0x0 0x1
2024-08-16 19:42:07,396 DEBUG [16020,MainThread] [pymodbus.logging] [logging.py:103]: Factory Request[ReadHoldingRegistersRequest': 3]
2024-08-16 19:42:07,396 DEBUG [16020,MainThread] [pymodbus.logging] [logging.py:103]: validate: fc-[3] address-1707: count-1
2024-08-16 19:42:07,396 ERROR [16020,MainThread] [pymodbus.logging] [logging.py:115]: Exception response Exception Response(131, 3, IllegalAddress)
2024-08-16 19:42:07,396 DEBUG [16020,MainThread] [pymodbus.logging] [logging.py:103]: send: 0x0 0x8 0x0 0x0 0x0 0x3 0x2 0x83 0x2
2024-08-16 19:42:07,399 DEBUG [16020,MainThread] [pymodbus.logging] [logging.py:103]: recv: 0x0 0x9 0x0 0x0 0x0 0x6 0x2 0x3 0x6 0xaa 0x0 0x1 old_data:  addr=None
2024-08-16 19:42:07,399 DEBUG [16020,MainThread] [pymodbus.logging] [logging.py:103]: Handling data: 0x0 0x9 0x0 0x0 0x0 0x6 0x2 0x3 0x6 0xaa 0x0 0x1
2024-08-16 19:42:07,399 DEBUG [16020,MainThread] [pymodbus.logging] [logging.py:103]: Processing: 0x0 0x9 0x0 0x0 0x0 0x6 0x2 0x3 0x6 0xaa 0x0 0x1
2024-08-16 19:42:07,399 DEBUG [16020,MainThread] [pymodbus.logging] [logging.py:103]: Factory Request[ReadHoldingRegistersRequest': 3]
2024-08-16 19:42:07,399 DEBUG [16020,MainThread] [pymodbus.logging] [logging.py:103]: validate: fc-[3] address-1707: count-1
2024-08-16 19:42:07,399 ERROR [16020,MainThread] [pymodbus.logging] [logging.py:115]: Exception response Exception Response(131, 3, IllegalAddress)
2024-08-16 19:42:07,399 DEBUG [16020,MainThread] [pymodbus.logging] [logging.py:103]: send: 0x0 0x9 0x0 0x0 0x0 0x3 0x2 0x83 0x2
2024-08-16 19:42:07,404 DEBUG [16020,MainThread] [pymodbus.logging] [logging.py:103]: recv: 0x0 0xa 0x0 0x0 0x0 0x6 0x2 0x3 0xc3 0x50 0x0 0x2 old_data:  addr=None
2024-08-16 19:42:07,404 DEBUG [16020,MainThread] [pymodbus.logging] [logging.py:103]: Handling data: 0x0 0xa 0x0 0x0 0x0 0x6 0x2 0x3 0xc3 0x50 0x0 0x2
2024-08-16 19:42:07,404 DEBUG [16020,MainThread] [pymodbus.logging] [logging.py:103]: Processing: 0x0 0xa 0x0 0x0 0x0 0x6 0x2 0x3 0xc3 0x50 0x0 0x2
2024-08-16 19:42:07,404 DEBUG [16020,MainThread] [pymodbus.logging] [logging.py:103]: Factory Request[ReadHoldingRegistersRequest': 3]
2024-08-16 19:42:07,404 DEBUG [16020,MainThread] [pymodbus.logging] [logging.py:103]: validate: fc-[3] address-50001: count-2
2024-08-16 19:42:07,404 ERROR [16020,MainThread] [pymodbus.logging] [logging.py:115]: Exception response Exception Response(131, 3, IllegalAddress)
2024-08-16 19:42:07,404 DEBUG [16020,MainThread] [pymodbus.logging] [logging.py:103]: send: 0x0 0xa 0x0 0x0 0x0 0x3 0x2 0x83 0x2
2024-08-16 19:42:07,408 DEBUG [16020,MainThread] [pymodbus.logging] [logging.py:103]: recv: 0x0 0xb 0x0 0x0 0x0 0x6 0x2 0x3 0x9c 0x40 0x0 0x2 old_data:  addr=None
2024-08-16 19:42:07,408 DEBUG [16020,MainThread] [pymodbus.logging] [logging.py:103]: Handling data: 0x0 0xb 0x0 0x0 0x0 0x6 0x2 0x3 0x9c 0x40 0x0 0x2
2024-08-16 19:42:07,408 DEBUG [16020,MainThread] [pymodbus.logging] [logging.py:103]: Processing: 0x0 0xb 0x0 0x0 0x0 0x6 0x2 0x3 0x9c 0x40 0x0 0x2
2024-08-16 19:42:07,408 DEBUG [16020,MainThread] [pymodbus.logging] [logging.py:103]: Factory Request[ReadHoldingRegistersRequest': 3]
2024-08-16 19:42:07,408 DEBUG [16020,MainThread] [pymodbus.logging] [logging.py:103]: validate: fc-[3] address-40001: count-2
2024-08-16 19:42:07,408 DEBUG [16020,MainThread] [pymodbus.logging] [logging.py:103]: getValues: fc-[3] address-40001: count-2
2024-08-16 19:42:07,408 DEBUG [16020,MainThread] [pymodbus.logging] [logging.py:103]: send: 0x0 0xb 0x0 0x0 0x0 0x7 0x2 0x3 0x4 0x53 0x75 0x6e 0x53
2024-08-16 19:42:07,421 DEBUG [16020,MainThread] [pymodbus.logging] [logging.py:103]: Connected to server
2024-08-16 19:42:07,424 DEBUG [16020,MainThread] [pymodbus.logging] [logging.py:103]: recv: 0x0 0x1 0x0 0x0 0x0 0x6 0x2 0x3 0x9c 0x42 0x0 0x2 old_data:  addr=None
2024-08-16 19:42:07,424 DEBUG [16020,MainThread] [pymodbus.logging] [logging.py:103]: Handling data: 0x0 0x1 0x0 0x0 0x0 0x6 0x2 0x3 0x9c 0x42 0x0 0x2
2024-08-16 19:42:07,424 DEBUG [16020,MainThread] [pymodbus.logging] [logging.py:103]: Processing: 0x0 0x1 0x0 0x0 0x0 0x6 0x2 0x3 0x9c 0x42 0x0 0x2
2024-08-16 19:42:07,424 DEBUG [16020,MainThread] [pymodbus.logging] [logging.py:103]: Factory Request[ReadHoldingRegistersRequest': 3]
2024-08-16 19:42:07,424 DEBUG [16020,MainThread] [pymodbus.logging] [logging.py:103]: validate: fc-[3] address-40003: count-2
2024-08-16 19:42:07,424 DEBUG [16020,MainThread] [pymodbus.logging] [logging.py:103]: getValues: fc-[3] address-40003: count-2
2024-08-16 19:42:07,424 DEBUG [16020,MainThread] [pymodbus.logging] [logging.py:103]: send: 0x0 0x1 0x0 0x0 0x0 0x7 0x2 0x3 0x4 0x0 0x1 0x0 0x41
2024-08-16 19:42:07,437 DEBUG [16020,MainThread] [pymodbus.logging] [logging.py:103]: recv: 0x0 0x2 0x0 0x0 0x0 0x6 0x2 0x3 0x9c 0x85 0x0 0x2 old_data:  addr=None
2024-08-16 19:42:07,437 DEBUG [16020,MainThread] [pymodbus.logging] [logging.py:103]: Handling data: 0x0 0x2 0x0 0x0 0x0 0x6 0x2 0x3 0x9c 0x85 0x0 0x2
2024-08-16 19:42:07,437 DEBUG [16020,MainThread] [pymodbus.logging] [logging.py:103]: Processing: 0x0 0x2 0x0 0x0 0x0 0x6 0x2 0x3 0x9c 0x85 0x0 0x2
2024-08-16 19:42:07,437 DEBUG [16020,MainThread] [pymodbus.logging] [logging.py:103]: Factory Request[ReadHoldingRegistersRequest': 3]
2024-08-16 19:42:07,437 DEBUG [16020,MainThread] [pymodbus.logging] [logging.py:103]: validate: fc-[3] address-40070: count-2
2024-08-16 19:42:07,437 DEBUG [16020,MainThread] [pymodbus.logging] [logging.py:103]: getValues: fc-[3] address-40070: count-2
2024-08-16 19:42:07,437 DEBUG [16020,MainThread] [pymodbus.logging] [logging.py:103]: send: 0x0 0x2 0x0 0x0 0x0 0x7 0x2 0x3 0x4 0x0 0xd5 0x0 0x7c
2024-08-16 19:42:07,476 DEBUG [16020,MainThread] [pymodbus.logging] [logging.py:103]: recv: 0x0 0x3 0x0 0x0 0x0 0x6 0x2 0x3 0x9d 0x3 0x0 0x2 old_data:  addr=None
2024-08-16 19:42:07,476 DEBUG [16020,MainThread] [pymodbus.logging] [logging.py:103]: Handling data: 0x0 0x3 0x0 0x0 0x0 0x6 0x2 0x3 0x9d 0x3 0x0 0x2
2024-08-16 19:42:07,476 DEBUG [16020,MainThread] [pymodbus.logging] [logging.py:103]: Processing: 0x0 0x3 0x0 0x0 0x0 0x6 0x2 0x3 0x9d 0x3 0x0 0x2
2024-08-16 19:42:07,476 DEBUG [16020,MainThread] [pymodbus.logging] [logging.py:103]: Factory Request[ReadHoldingRegistersRequest': 3]
2024-08-16 19:42:07,477 DEBUG [16020,MainThread] [pymodbus.logging] [logging.py:103]: validate: fc-[3] address-40196: count-2
2024-08-16 19:42:07,477 DEBUG [16020,MainThread] [pymodbus.logging] [logging.py:103]: getValues: fc-[3] address-40196: count-2
2024-08-16 19:42:07,477 DEBUG [16020,MainThread] [pymodbus.logging] [logging.py:103]: send: 0x0 0x3 0x0 0x0 0x0 0x7 0x2 0x3 0x4 0xff 0xff 0x0 0x0
2024-08-16 19:42:07,480 DEBUG [16020,MainThread] [pymodbus.logging] [logging.py:103]: recv: 0x0 0x4 0x0 0x0 0x0 0x6 0x2 0x3 0x9c 0x44 0x0 0x42 old_data:  addr=None
2024-08-16 19:42:07,480 DEBUG [16020,MainThread] [pymodbus.logging] [logging.py:103]: Handling data: 0x0 0x4 0x0 0x0 0x0 0x6 0x2 0x3 0x9c 0x44 0x0 0x42
2024-08-16 19:42:07,480 DEBUG [16020,MainThread] [pymodbus.logging] [logging.py:103]: Processing: 0x0 0x4 0x0 0x0 0x0 0x6 0x2 0x3 0x9c 0x44 0x0 0x42
2024-08-16 19:42:07,480 DEBUG [16020,MainThread] [pymodbus.logging] [logging.py:103]: Factory Request[ReadHoldingRegistersRequest': 3]
2024-08-16 19:42:07,480 DEBUG [16020,MainThread] [pymodbus.logging] [logging.py:103]: validate: fc-[3] address-40005: count-66
2024-08-16 19:42:07,480 DEBUG [16020,MainThread] [pymodbus.logging] [logging.py:103]: getValues: fc-[3] address-40005: count-66
2024-08-16 19:42:07,480 DEBUG [16020,MainThread] [pymodbus.logging] [logging.py:103]: send: 0x0 0x4 0x0 0x0 0x0 0x87 0x2 0x3 0x84 0x0 0x46 0x0 0x72 0x0 0x6f 0x0 0x6e 0x0 0x69 0x0 0x75 0x0 0x73 0x0 0x0 0x0 0x0 0x0 0x0 0x0 0x0 0x0 0x0 0x0 0x0 0x0 0x0 0x0 0x0 0x0 0x0 0x0 0x53 0x0 0x6d 0x0 0x61 0x0 0x72 0x0 0x74 0x0 0x20 0x0 0x4d 0x0 0x65 0x0 0x74 0x0 0x65 0x0 0x72 0x0 0x20 0x0 0x36 0x0 0x33 0x0 0x41 0x0 0x0 0x0 0x0 0x0 0x0 0x0 0x0 0x0 0x0 0x0 0x0 0x0 0x0 0x0 0x0 0x0 0x0 0x0 0x0 0x0 0x0 0x0 0x0 0x0 0x0 0x0 0x0 0x0 0x0 0x0 0x0 0x0 0x0 0x0 0x30 0x0 0x30 0x0 0x30 0x0 0x30 0x0 0x30 0x0 0x30 0x0 0x30 0x0 0x31 0x0 0x0 0x0 0x0 0x0 0x0 0x0 0x0 0x0 0x0 0x0 0x0 0x0 0x0 0x0 0x0 0x0 0xf1 0x0 0xd5
2024-08-16 19:42:07,622 DEBUG [16020,MainThread] [pymodbus.logging] [logging.py:103]: recv: 0x0 0x5 0x0 0x0 0x0 0x6 0x2 0x3 0x9c 0x87 0x0 0x3a old_data:  addr=None
2024-08-16 19:42:07,622 DEBUG [16020,MainThread] [pymodbus.logging] [logging.py:103]: Handling data: 0x0 0x5 0x0 0x0 0x0 0x6 0x2 0x3 0x9c 0x87 0x0 0x3a
2024-08-16 19:42:07,622 DEBUG [16020,MainThread] [pymodbus.logging] [logging.py:103]: Processing: 0x0 0x5 0x0 0x0 0x0 0x6 0x2 0x3 0x9c 0x87 0x0 0x3a
2024-08-16 19:42:07,623 DEBUG [16020,MainThread] [pymodbus.logging] [logging.py:103]: Factory Request[ReadHoldingRegistersRequest': 3]
2024-08-16 19:42:07,623 DEBUG [16020,MainThread] [pymodbus.logging] [logging.py:103]: validate: fc-[3] address-40072: count-58
2024-08-16 19:42:07,623 DEBUG [16020,MainThread] [pymodbus.logging] [logging.py:103]: getValues: fc-[3] address-40072: count-58
2024-08-16 19:42:07,623 DEBUG [16020,MainThread] [pymodbus.logging] [logging.py:103]: send: 0x0 0x5 0x0 0x0 0x0 0x77 0x2 0x3 0x74 0x0 0x0 0x0 0x0 0x0 0x0 0x0 0x0 0x0 0x0 0x0 0x0 0x0 0x0 0x0 0x0 0x0 0x0 0x0 0x0 0x0 0x0 0x0 0x0 0x0 0x0 0x0 0x0 0x0 0x0 0x0 0x0 0x0 0x0 0x0 0x0 0x0 0x0 0x0 0x0 0x0 0x0 0x0 0x0 0x0 0x0 0x0 0x0 0x0 0x0 0x0 0x0 0xbf 0x80 0x0 0x0 0x0 0x0 0x0 0x0 0x0 0x0 0x0 0x0 0x0 0x0 0x0 0x0 0x0 0x0 0x0 0x0 0x0 0x0 0x0 0x0 0x0 0x0 0x0 0x0 0x0 0x0 0x0 0x0 0x0 0x0 0x0 0x0 0x0 0x0 0x0 0x0 0x0 0x0 0x0 0x0 0x0 0x0 0x0 0x0 0x0 0x0 0x0 0x0 0x0 0x0 0x0 0x0 0x0 0x0 0x0 0x0 0x0 0x0 0x0 0x0
2024-08-16 19:42:07,632 DEBUG [16020,MainThread] [pymodbus.logging] [logging.py:103]: recv: 0x0 0x6 0x0 0x0 0x0 0x6 0x2 0x3 0x9d 0x1 0x0 0x2 old_data:  addr=None
2024-08-16 19:42:07,632 DEBUG [16020,MainThread] [pymodbus.logging] [logging.py:103]: Handling data: 0x0 0x6 0x0 0x0 0x0 0x6 0x2 0x3 0x9d 0x1 0x0 0x2
2024-08-16 19:42:07,632 DEBUG [16020,MainThread] [pymodbus.logging] [logging.py:103]: Processing: 0x0 0x6 0x0 0x0 0x0 0x6 0x2 0x3 0x9d 0x1 0x0 0x2
2024-08-16 19:42:07,632 DEBUG [16020,MainThread] [pymodbus.logging] [logging.py:103]: Factory Request[ReadHoldingRegistersRequest': 3]
2024-08-16 19:42:07,633 DEBUG [16020,MainThread] [pymodbus.logging] [logging.py:103]: validate: fc-[3] address-40194: count-2
2024-08-16 19:42:07,633 DEBUG [16020,MainThread] [pymodbus.logging] [logging.py:103]: getValues: fc-[3] address-40194: count-2
2024-08-16 19:42:07,633 DEBUG [16020,MainThread] [pymodbus.logging] [logging.py:103]: send: 0x0 0x6 0x0 0x0 0x0 0x7 0x2 0x3 0x4 0x0 0x0 0x0 0x0
2024-08-16 19:42:07,661 DEBUG [16020,MainThread] [pymodbus.logging] [logging.py:103]: recv: 0x0 0x7 0x0 0x0 0x0 0x6 0x2 0x3 0x9c 0xc1 0x0 0x20 old_data:  addr=None
2024-08-16 19:42:07,661 DEBUG [16020,MainThread] [pymodbus.logging] [logging.py:103]: Handling data: 0x0 0x7 0x0 0x0 0x0 0x6 0x2 0x3 0x9c 0xc1 0x0 0x20
2024-08-16 19:42:07,661 DEBUG [16020,MainThread] [pymodbus.logging] [logging.py:103]: Processing: 0x0 0x7 0x0 0x0 0x0 0x6 0x2 0x3 0x9c 0xc1 0x0 0x20
2024-08-16 19:42:07,661 DEBUG [16020,MainThread] [pymodbus.logging] [logging.py:103]: Factory Request[ReadHoldingRegistersRequest': 3]
2024-08-16 19:42:07,661 DEBUG [16020,MainThread] [pymodbus.logging] [logging.py:103]: validate: fc-[3] address-40130: count-32
2024-08-16 19:42:07,662 DEBUG [16020,MainThread] [pymodbus.logging] [logging.py:103]: getValues: fc-[3] address-40130: count-32
2024-08-16 19:42:07,662 DEBUG [16020,MainThread] [pymodbus.logging] [logging.py:103]: send: 0x0 0x7 0x0 0x0 0x0 0x43 0x2 0x3 0x40 0x44 0x7a 0x0 0x0 0x0 0x0 0x0 0x0 0x0 0x0 0x0 0x0 0x0 0x0 0x0 0x0 0x44 0x7a 0x0 0x0 0x0 0x0 0x0 0x0 0x0 0x0 0x0 0x0 0x0 0x0 0x0 0x0 0x0 0x0 0x0 0x0 0x0 0x0 0x0 0x0 0x0 0x0 0x0 0x0 0x0 0x0 0x0 0x0 0x0 0x0 0x0 0x0 0x0 0x0 0x0 0x0 0x0 0x0 0x0 0x0 0x0 0x0 0x0 0x0
2024-08-16 19:42:07,779 DEBUG [16020,MainThread] [pymodbus.logging] [logging.py:103]: -> transport: received eof
2024-08-16 19:42:07,779 DEBUG [16020,MainThread] [pymodbus.logging] [logging.py:103]: Connection lost server due to None
2024-08-16 19:42:07,779 DEBUG [16020,MainThread] [pymodbus.logging] [logging.py:103]: Handler for stream [server] has been canceled
2024-08-16 19:42:08,621 DEBUG [16020,MainThread] [pymodbus.logging] [logging.py:103]: recv: 0x0 0x8 0x0 0x0 0x0 0x6 0x2 0x3 0x9c 0x87 0x0 0x3a old_data:  addr=None
2024-08-16 19:42:08,622 DEBUG [16020,MainThread] [pymodbus.logging] [logging.py:103]: Handling data: 0x0 0x8 0x0 0x0 0x0 0x6 0x2 0x3 0x9c 0x87 0x0 0x3a
2024-08-16 19:42:08,622 DEBUG [16020,MainThread] [pymodbus.logging] [logging.py:103]: Processing: 0x0 0x8 0x0 0x0 0x0 0x6 0x2 0x3 0x9c 0x87 0x0 0x3a
2024-08-16 19:42:08,622 DEBUG [16020,MainThread] [pymodbus.logging] [logging.py:103]: Factory Request[ReadHoldingRegistersRequest': 3]
2024-08-16 19:42:08,622 DEBUG [16020,MainThread] [pymodbus.logging] [logging.py:103]: validate: fc-[3] address-40072: count-58
2024-08-16 19:42:08,622 DEBUG [16020,MainThread] [pymodbus.logging] [logging.py:103]: getValues: fc-[3] address-40072: count-58
2024-08-16 19:42:08,622 DEBUG [16020,MainThread] [pymodbus.logging] [logging.py:103]: send: 0x0 0x8 0x0 0x0 0x0 0x77 0x2 0x3 0x74 0x0 0x0 0x0 0x0 0x0 0x0 0x0 0x0 0x0 0x0 0x0 0x0 0x0 0x0 0x0 0x0 0x0 0x0 0x0 0x0 0x0 0x0 0x0 0x0 0x0 0x0 0x0 0x0 0x0 0x0 0x0 0x0 0x0 0x0 0x0 0x0 0x0 0x0 0x0 0x0 0x0 0x0 0x0 0x0 0x0 0x0 0x0 0x0 0x0 0x0 0x0 0x0 0xbf 0x80 0x0 0x0 0x0 0x0 0x0 0x0 0x0 0x0 0x0 0x0 0x0 0x0 0x0 0x0 0x0 0x0 0x0 0x0 0x0 0x0 0x0 0x0 0x0 0x0 0x0 0x0 0x0 0x0 0x0 0x0 0x0 0x0 0x0 0x0 0x0 0x0 0x0 0x0 0x0 0x0 0x0 0x0 0x0 0x0 0x0 0x0 0x0 0x0 0x0 0x0 0x0 0x0 0x0 0x0 0x0 0x0 0x0 0x0 0x0 0x0 0x0 0x0
2024-08-16 19:42:08,634 DEBUG [16020,MainThread] [pymodbus.logging] [logging.py:103]: recv: 0x0 0x9 0x0 0x0 0x0 0x6 0x2 0x3 0x9d 0x1 0x0 0x2 old_data:  addr=None
2024-08-16 19:42:08,634 DEBUG [16020,MainThread] [pymodbus.logging] [logging.py:103]: Handling data: 0x0 0x9 0x0 0x0 0x0 0x6 0x2 0x3 0x9d 0x1 0x0 0x2
2024-08-16 19:42:08,634 DEBUG [16020,MainThread] [pymodbus.logging] [logging.py:103]: Processing: 0x0 0x9 0x0 0x0 0x0 0x6 0x2 0x3 0x9d 0x1 0x0 0x2
2024-08-16 19:42:08,634 DEBUG [16020,MainThread] [pymodbus.logging] [logging.py:103]: Factory Request[ReadHoldingRegistersRequest': 3]
2024-08-16 19:42:08,634 DEBUG [16020,MainThread] [pymodbus.logging] [logging.py:103]: validate: fc-[3] address-40194: count-2
2024-08-16 19:42:08,634 DEBUG [16020,MainThread] [pymodbus.logging] [logging.py:103]: getValues: fc-[3] address-40194: count-2
2024-08-16 19:42:08,634 DEBUG [16020,MainThread] [pymodbus.logging] [logging.py:103]: send: 0x0 0x9 0x0 0x0 0x0 0x7 0x2 0x3 0x4 0x0 0x0 0x0 0x0
2024-08-16 19:42:09,622 DEBUG [16020,MainThread] [pymodbus.logging] [logging.py:103]: recv: 0x0 0xa 0x0 0x0 0x0 0x6 0x2 0x3 0x9c 0x87 0x0 0x3a old_data:  addr=None
2024-08-16 19:42:09,622 DEBUG [16020,MainThread] [pymodbus.logging] [logging.py:103]: Handling data: 0x0 0xa 0x0 0x0 0x0 0x6 0x2 0x3 0x9c 0x87 0x0 0x3a
2024-08-16 19:42:09,622 DEBUG [16020,MainThread] [pymodbus.logging] [logging.py:103]: Processing: 0x0 0xa 0x0 0x0 0x0 0x6 0x2 0x3 0x9c 0x87 0x0 0x3a
2024-08-16 19:42:09,622 DEBUG [16020,MainThread] [pymodbus.logging] [logging.py:103]: Factory Request[ReadHoldingRegistersRequest': 3]
2024-08-16 19:42:09,622 DEBUG [16020,MainThread] [pymodbus.logging] [logging.py:103]: validate: fc-[3] address-40072: count-58
2024-08-16 19:42:09,622 DEBUG [16020,MainThread] [pymodbus.logging] [logging.py:103]: getValues: fc-[3] address-40072: count-58
2024-08-16 19:42:09,622 DEBUG [16020,MainThread] [pymodbus.logging] [logging.py:103]: send: 0x0 0xa 0x0 0x0 0x0 0x77 0x2 0x3 0x74 0x0 0x0 0x0 0x0 0x0 0x0 0x0 0x0 0x0 0x0 0x0 0x0 0x0 0x0 0x0 0x0 0x0 0x0 0x0 0x0 0x0 0x0 0x0 0x0 0x0 0x0 0x0 0x0 0x0 0x0 0x0 0x0 0x0 0x0 0x0 0x0 0x0 0x0 0x0 0x0 0x0 0x0 0x0 0x0 0x0 0x0 0x0 0x0 0x0 0x0 0x0 0x0 0xbf 0x80 0x0 0x0 0x0 0x0 0x0 0x0 0x0 0x0 0x0 0x0 0x0 0x0 0x0 0x0 0x0 0x0 0x0 0x0 0x0 0x0 0x0 0x0 0x0 0x0 0x0 0x0 0x0 0x0 0x0 0x0 0x0 0x0 0x0 0x0 0x0 0x0 0x0 0x0 0x0 0x0 0x0 0x0 0x0 0x0 0x0 0x0 0x0 0x0 0x0 0x0 0x0 0x0 0x0 0x0 0x0 0x0 0x0 0x0 0x0 0x0 0x0 0x0
2024-08-16 19:42:09,631 DEBUG [16020,MainThread] [pymodbus.logging] [logging.py:103]: recv: 0x0 0xb 0x0 0x0 0x0 0x6 0x2 0x3 0x9d 0x1 0x0 0x2 old_data:  addr=None
2024-08-16 19:42:09,631 DEBUG [16020,MainThread] [pymodbus.logging] [logging.py:103]: Handling data: 0x0 0xb 0x0 0x0 0x0 0x6 0x2 0x3 0x9d 0x1 0x0 0x2
2024-08-16 19:42:09,631 DEBUG [16020,MainThread] [pymodbus.logging] [logging.py:103]: Processing: 0x0 0xb 0x0 0x0 0x0 0x6 0x2 0x3 0x9d 0x1 0x0 0x2
2024-08-16 19:42:09,631 DEBUG [16020,MainThread] [pymodbus.logging] [logging.py:103]: Factory Request[ReadHoldingRegistersRequest': 3]
2024-08-16 19:42:09,631 DEBUG [16020,MainThread] [pymodbus.logging] [logging.py:103]: validate: fc-[3] address-40194: count-2
2024-08-16 19:42:09,632 DEBUG [16020,MainThread] [pymodbus.logging] [logging.py:103]: getValues: fc-[3] address-40194: count-2
2024-08-16 19:42:09,632 DEBUG [16020,MainThread] [pymodbus.logging] [logging.py:103]: send: 0x0 0xb 0x0 0x0 0x0 0x7 0x2 0x3 0x4 0x0 0x0 0x0 0x0
2024-08-16 19:42:10,621 DEBUG [16020,MainThread] [pymodbus.logging] [logging.py:103]: recv: 0x0 0xc 0x0 0x0 0x0 0x6 0x2 0x3 0x9c 0x87 0x0 0x3a old_data:  addr=None
2024-08-16 19:42:10,622 DEBUG [16020,MainThread] [pymodbus.logging] [logging.py:103]: Handling data: 0x0 0xc 0x0 0x0 0x0 0x6 0x2 0x3 0x9c 0x87 0x0 0x3a
2024-08-16 19:42:10,622 DEBUG [16020,MainThread] [pymodbus.logging] [logging.py:103]: Processing: 0x0 0xc 0x0 0x0 0x0 0x6 0x2 0x3 0x9c 0x87 0x0 0x3a
2024-08-16 19:42:10,622 DEBUG [16020,MainThread] [pymodbus.logging] [logging.py:103]: Factory Request[ReadHoldingRegistersRequest': 3]
2024-08-16 19:42:10,622 DEBUG [16020,MainThread] [pymodbus.logging] [logging.py:103]: validate: fc-[3] address-40072: count-58
2024-08-16 19:42:10,622 DEBUG [16020,MainThread] [pymodbus.logging] [logging.py:103]: getValues: fc-[3] address-40072: count-58
2024-08-16 19:42:10,622 DEBUG [16020,MainThread] [pymodbus.logging] [logging.py:103]: send: 0x0 0xc 0x0 0x0 0x0 0x77 0x2 0x3 0x74 0x0 0x0 0x0 0x0 0x0 0x0 0x0 0x0 0x0 0x0 0x0 0x0 0x0 0x0 0x0 0x0 0x0 0x0 0x0 0x0 0x0 0x0 0x0 0x0 0x0 0x0 0x0 0x0 0x0 0x0 0x0 0x0 0x0 0x0 0x0 0x0 0x0 0x0 0x0 0x0 0x0 0x0 0x0 0x0 0x0 0x0 0x0 0x0 0x0 0x0 0x0 0x0 0xbf 0x80 0x0 0x0 0x0 0x0 0x0 0x0 0x0 0x0 0x0 0x0 0x0 0x0 0x0 0x0 0x0 0x0 0x0 0x0 0x0 0x0 0x0 0x0 0x0 0x0 0x0 0x0 0x0 0x0 0x0 0x0 0x0 0x0 0x0 0x0 0x0 0x0 0x0 0x0 0x0 0x0 0x0 0x0 0x0 0x0 0x0 0x0 0x0 0x0 0x0 0x0 0x0 0x0 0x0 0x0 0x0 0x0 0x0 0x0 0x0 0x0 0x0 0x0
2024-08-16 19:42:10,632 DEBUG [16020,MainThread] [pymodbus.logging] [logging.py:103]: recv: 0x0 0xd 0x0 0x0 0x0 0x6 0x2 0x3 0x9d 0x1 0x0 0x2 old_data:  addr=None
2024-08-16 19:42:10,632 DEBUG [16020,MainThread] [pymodbus.logging] [logging.py:103]: Handling data: 0x0 0xd 0x0 0x0 0x0 0x6 0x2 0x3 0x9d 0x1 0x0 0x2
2024-08-16 19:42:10,632 DEBUG [16020,MainThread] [pymodbus.logging] [logging.py:103]: Processing: 0x0 0xd 0x0 0x0 0x0 0x6 0x2 0x3 0x9d 0x1 0x0 0x2
2024-08-16 19:42:10,632 DEBUG [16020,MainThread] [pymodbus.logging] [logging.py:103]: Factory Request[ReadHoldingRegistersRequest': 3]
2024-08-16 19:42:10,632 DEBUG [16020,MainThread] [pymodbus.logging] [logging.py:103]: validate: fc-[3] address-40194: count-2
2024-08-16 19:42:10,632 DEBUG [16020,MainThread] [pymodbus.logging] [logging.py:103]: getValues: fc-[3] address-40194: count-2
2024-08-16 19:42:10,632 DEBUG [16020,MainThread] [pymodbus.logging] [logging.py:103]: send: 0x0 0xd 0x0 0x0 0x0 0x7 0x2 0x3 0x4 0x0 0x0 0x0 0x0
2024-08-16 19:42:11,622 DEBUG [16020,MainThread] [pymodbus.logging] [logging.py:103]: recv: 0x0 0xe 0x0 0x0 0x0 0x6 0x2 0x3 0x9c 0x87 0x0 0x3a old_data:  addr=None
2024-08-16 19:42:11,622 DEBUG [16020,MainThread] [pymodbus.logging] [logging.py:103]: Handling data: 0x0 0xe 0x0 0x0 0x0 0x6 0x2 0x3 0x9c 0x87 0x0 0x3a
2024-08-16 19:42:11,622 DEBUG [16020,MainThread] [pymodbus.logging] [logging.py:103]: Processing: 0x0 0xe 0x0 0x0 0x0 0x6 0x2 0x3 0x9c 0x87 0x0 0x3a
2024-08-16 19:42:11,622 DEBUG [16020,MainThread] [pymodbus.logging] [logging.py:103]: Factory Request[ReadHoldingRegistersRequest': 3]
2024-08-16 19:42:11,623 DEBUG [16020,MainThread] [pymodbus.logging] [logging.py:103]: validate: fc-[3] address-40072: count-58
2024-08-16 19:42:11,623 DEBUG [16020,MainThread] [pymodbus.logging] [logging.py:103]: getValues: fc-[3] address-40072: count-58
2024-08-16 19:42:11,623 DEBUG [16020,MainThread] [pymodbus.logging] [logging.py:103]: send: 0x0 0xe 0x0 0x0 0x0 0x77 0x2 0x3 0x74 0x0 0x0 0x0 0x0 0x0 0x0 0x0 0x0 0x0 0x0 0x0 0x0 0x0 0x0 0x0 0x0 0x0 0x0 0x0 0x0 0x0 0x0 0x0 0x0 0x0 0x0 0x0 0x0 0x0 0x0 0x0 0x0 0x0 0x0 0x0 0x0 0x0 0x0 0x0 0x0 0x0 0x0 0x0 0x0 0x0 0x0 0x0 0x0 0x0 0x0 0x0 0x0 0xbf 0x80 0x0 0x0 0x0 0x0 0x0 0x0 0x0 0x0 0x0 0x0 0x0 0x0 0x0 0x0 0x0 0x0 0x0 0x0 0x0 0x0 0x0 0x0 0x0 0x0 0x0 0x0 0x0 0x0 0x0 0x0 0x0 0x0 0x0 0x0 0x0 0x0 0x0 0x0 0x0 0x0 0x0 0x0 0x0 0x0 0x0 0x0 0x0 0x0 0x0 0x0 0x0 0x0 0x0 0x0 0x0 0x0 0x0 0x0 0x0 0x0 0x0 0x0
2024-08-16 19:42:11,631 DEBUG [16020,MainThread] [pymodbus.logging] [logging.py:103]: recv: 0x0 0xf 0x0 0x0 0x0 0x6 0x2 0x3 0x9d 0x1 0x0 0x2 old_data:  addr=None
2024-08-16 19:42:11,631 DEBUG [16020,MainThread] [pymodbus.logging] [logging.py:103]: Handling data: 0x0 0xf 0x0 0x0 0x0 0x6 0x2 0x3 0x9d 0x1 0x0 0x2
2024-08-16 19:42:11,631 DEBUG [16020,MainThread] [pymodbus.logging] [logging.py:103]: Processing: 0x0 0xf 0x0 0x0 0x0 0x6 0x2 0x3 0x9d 0x1 0x0 0x2
2024-08-16 19:42:11,631 DEBUG [16020,MainThread] [pymodbus.logging] [logging.py:103]: Factory Request[ReadHoldingRegistersRequest': 3]
2024-08-16 19:42:11,631 DEBUG [16020,MainThread] [pymodbus.logging] [logging.py:103]: validate: fc-[3] address-40194: count-2
2024-08-16 19:42:11,632 DEBUG [16020,MainThread] [pymodbus.logging] [logging.py:103]: getValues: fc-[3] address-40194: count-2
2024-08-16 19:42:11,632 DEBUG [16020,MainThread] [pymodbus.logging] [logging.py:103]: send: 0x0 0xf 0x0 0x0 0x0 0x7 0x2 0x3 0x4 0x0 0x0 0x0 0x0
2024-08-16 19:42:12,622 DEBUG [16020,MainThread] [pymodbus.logging] [logging.py:103]: recv: 0x0 0x10 0x0 0x0 0x0 0x6 0x2 0x3 0x9c 0x87 0x0 0x3a old_data:  addr=None
2024-08-16 19:42:12,622 DEBUG [16020,MainThread] [pymodbus.logging] [logging.py:103]: Handling data: 0x0 0x10 0x0 0x0 0x0 0x6 0x2 0x3 0x9c 0x87 0x0 0x3a
2024-08-16 19:42:12,623 DEBUG [16020,MainThread] [pymodbus.logging] [logging.py:103]: Processing: 0x0 0x10 0x0 0x0 0x0 0x6 0x2 0x3 0x9c 0x87 0x0 0x3a
2024-08-16 19:42:12,623 DEBUG [16020,MainThread] [pymodbus.logging] [logging.py:103]: Factory Request[ReadHoldingRegistersRequest': 3]
2024-08-16 19:42:12,624 DEBUG [16020,MainThread] [pymodbus.logging] [logging.py:103]: validate: fc-[3] address-40072: count-58
2024-08-16 19:42:12,624 DEBUG [16020,MainThread] [pymodbus.logging] [logging.py:103]: getValues: fc-[3] address-40072: count-58
2024-08-16 19:42:12,625 DEBUG [16020,MainThread] [pymodbus.logging] [logging.py:103]: send: 0x0 0x10 0x0 0x0 0x0 0x77 0x2 0x3 0x74 0x0 0x0 0x0 0x0 0x0 0x0 0x0 0x0 0x0 0x0 0x0 0x0 0x0 0x0 0x0 0x0 0x0 0x0 0x0 0x0 0x0 0x0 0x0 0x0 0x0 0x0 0x0 0x0 0x0 0x0 0x0 0x0 0x0 0x0 0x0 0x0 0x0 0x0 0x0 0x0 0x0 0x0 0x0 0x0 0x0 0x0 0x0 0x0 0x0 0x0 0x0 0x0 0xbf 0x80 0x0 0x0 0x0 0x0 0x0 0x0 0x0 0x0 0x0 0x0 0x0 0x0 0x0 0x0 0x0 0x0 0x0 0x0 0x0 0x0 0x0 0x0 0x0 0x0 0x0 0x0 0x0 0x0 0x0 0x0 0x0 0x0 0x0 0x0 0x0 0x0 0x0 0x0 0x0 0x0 0x0 0x0 0x0 0x0 0x0 0x0 0x0 0x0 0x0 0x0 0x0 0x0 0x0 0x0 0x0 0x0 0x0 0x0 0x0 0x0 0x0 0x0
2024-08-16 19:42:12,637 DEBUG [16020,MainThread] [pymodbus.logging] [logging.py:103]: recv: 0x0 0x11 0x0 0x0 0x0 0x6 0x2 0x3 0x9d 0x1 0x0 0x2 old_data:  addr=None
2024-08-16 19:42:12,637 DEBUG [16020,MainThread] [pymodbus.logging] [logging.py:103]: Handling data: 0x0 0x11 0x0 0x0 0x0 0x6 0x2 0x3 0x9d 0x1 0x0 0x2
2024-08-16 19:42:12,637 DEBUG [16020,MainThread] [pymodbus.logging] [logging.py:103]: Processing: 0x0 0x11 0x0 0x0 0x0 0x6 0x2 0x3 0x9d 0x1 0x0 0x2
2024-08-16 19:42:12,639 DEBUG [16020,MainThread] [pymodbus.logging] [logging.py:103]: Factory Request[ReadHoldingRegistersRequest': 3]
2024-08-16 19:42:12,640 DEBUG [16020,MainThread] [pymodbus.logging] [logging.py:103]: validate: fc-[3] address-40194: count-2
2024-08-16 19:42:12,640 DEBUG [16020,MainThread] [pymodbus.logging] [logging.py:103]: getValues: fc-[3] address-40194: count-2
2024-08-16 19:42:12,640 DEBUG [16020,MainThread] [pymodbus.logging] [logging.py:103]: send: 0x0 0x11 0x0 0x0 0x0 0x7 0x2 0x3 0x4 0x0 0x0 0x0 0x0
2024-08-16 19:42:13,622 DEBUG [16020,MainThread] [pymodbus.logging] [logging.py:103]: recv: 0x0 0x12 0x0 0x0 0x0 0x6 0x2 0x3 0x9c 0x87 0x0 0x3a old_data:  addr=None
2024-08-16 19:42:13,622 DEBUG [16020,MainThread] [pymodbus.logging] [logging.py:103]: Handling data: 0x0 0x12 0x0 0x0 0x0 0x6 0x2 0x3 0x9c 0x87 0x0 0x3a
2024-08-16 19:42:13,622 DEBUG [16020,MainThread] [pymodbus.logging] [logging.py:103]: Processing: 0x0 0x12 0x0 0x0 0x0 0x6 0x2 0x3 0x9c 0x87 0x0 0x3a
2024-08-16 19:42:13,622 DEBUG [16020,MainThread] [pymodbus.logging] [logging.py:103]: Factory Request[ReadHoldingRegistersRequest': 3]
2024-08-16 19:42:13,622 DEBUG [16020,MainThread] [pymodbus.logging] [logging.py:103]: validate: fc-[3] address-40072: count-58
2024-08-16 19:42:13,623 DEBUG [16020,MainThread] [pymodbus.logging] [logging.py:103]: getValues: fc-[3] address-40072: count-58
2024-08-16 19:42:13,623 DEBUG [16020,MainThread] [pymodbus.logging] [logging.py:103]: send: 0x0 0x12 0x0 0x0 0x0 0x77 0x2 0x3 0x74 0x0 0x0 0x0 0x0 0x0 0x0 0x0 0x0 0x0 0x0 0x0 0x0 0x0 0x0 0x0 0x0 0x0 0x0 0x0 0x0 0x0 0x0 0x0 0x0 0x0 0x0 0x0 0x0 0x0 0x0 0x0 0x0 0x0 0x0 0x0 0x0 0x0 0x0 0x0 0x0 0x0 0x0 0x0 0x0 0x0 0x0 0x0 0x0 0x0 0x0 0x0 0x0 0xbf 0x80 0x0 0x0 0x0 0x0 0x0 0x0 0x0 0x0 0x0 0x0 0x0 0x0 0x0 0x0 0x0 0x0 0x0 0x0 0x0 0x0 0x0 0x0 0x0 0x0 0x0 0x0 0x0 0x0 0x0 0x0 0x0 0x0 0x0 0x0 0x0 0x0 0x0 0x0 0x0 0x0 0x0 0x0 0x0 0x0 0x0 0x0 0x0 0x0 0x0 0x0 0x0 0x0 0x0 0x0 0x0 0x0 0x0 0x0 0x0 0x0 0x0 0x0
2024-08-16 19:42:13,631 DEBUG [16020,MainThread] [pymodbus.logging] [logging.py:103]: recv: 0x0 0x13 0x0 0x0 0x0 0x6 0x2 0x3 0x9d 0x1 0x0 0x2 old_data:  addr=None
2024-08-16 19:42:13,631 DEBUG [16020,MainThread] [pymodbus.logging] [logging.py:103]: Handling data: 0x0 0x13 0x0 0x0 0x0 0x6 0x2 0x3 0x9d 0x1 0x0 0x2
2024-08-16 19:42:13,631 DEBUG [16020,MainThread] [pymodbus.logging] [logging.py:103]: Processing: 0x0 0x13 0x0 0x0 0x0 0x6 0x2 0x3 0x9d 0x1 0x0 0x2
2024-08-16 19:42:13,632 DEBUG [16020,MainThread] [pymodbus.logging] [logging.py:103]: Factory Request[ReadHoldingRegistersRequest': 3]
2024-08-16 19:42:13,632 DEBUG [16020,MainThread] [pymodbus.logging] [logging.py:103]: validate: fc-[3] address-40194: count-2
2024-08-16 19:42:13,632 DEBUG [16020,MainThread] [pymodbus.logging] [logging.py:103]: getValues: fc-[3] address-40194: count-2
2024-08-16 19:42:13,632 DEBUG [16020,MainThread] [pymodbus.logging] [logging.py:103]: send: 0x0 0x13 0x0 0x0 0x0 0x7 0x2 0x3 0x4 0x0 0x0 0x0 0x0
2024-08-16 19:42:14,622 DEBUG [16020,MainThread] [pymodbus.logging] [logging.py:103]: recv: 0x0 0x14 0x0 0x0 0x0 0x6 0x2 0x3 0x9c 0x87 0x0 0x3a old_data:  addr=None
2024-08-16 19:42:14,622 DEBUG [16020,MainThread] [pymodbus.logging] [logging.py:103]: Handling data: 0x0 0x14 0x0 0x0 0x0 0x6 0x2 0x3 0x9c 0x87 0x0 0x3a
2024-08-16 19:42:14,622 DEBUG [16020,MainThread] [pymodbus.logging] [logging.py:103]: Processing: 0x0 0x14 0x0 0x0 0x0 0x6 0x2 0x3 0x9c 0x87 0x0 0x3a
2024-08-16 19:42:14,622 DEBUG [16020,MainThread] [pymodbus.logging] [logging.py:103]: Factory Request[ReadHoldingRegistersRequest': 3]
2024-08-16 19:42:14,622 DEBUG [16020,MainThread] [pymodbus.logging] [logging.py:103]: validate: fc-[3] address-40072: count-58
2024-08-16 19:42:14,622 DEBUG [16020,MainThread] [pymodbus.logging] [logging.py:103]: getValues: fc-[3] address-40072: count-58
2024-08-16 19:42:14,622 DEBUG [16020,MainThread] [pymodbus.logging] [logging.py:103]: send: 0x0 0x14 0x0 0x0 0x0 0x77 0x2 0x3 0x74 0x0 0x0 0x0 0x0 0x0 0x0 0x0 0x0 0x0 0x0 0x0 0x0 0x0 0x0 0x0 0x0 0x0 0x0 0x0 0x0 0x0 0x0 0x0 0x0 0x0 0x0 0x0 0x0 0x0 0x0 0x0 0x0 0x0 0x0 0x0 0x0 0x0 0x0 0x0 0x0 0x0 0x0 0x0 0x0 0x0 0x0 0x0 0x0 0x0 0x0 0x0 0x0 0xbf 0x80 0x0 0x0 0x0 0x0 0x0 0x0 0x0 0x0 0x0 0x0 0x0 0x0 0x0 0x0 0x0 0x0 0x0 0x0 0x0 0x0 0x0 0x0 0x0 0x0 0x0 0x0 0x0 0x0 0x0 0x0 0x0 0x0 0x0 0x0 0x0 0x0 0x0 0x0 0x0 0x0 0x0 0x0 0x0 0x0 0x0 0x0 0x0 0x0 0x0 0x0 0x0 0x0 0x0 0x0 0x0 0x0 0x0 0x0 0x0 0x0 0x0 0x0
2024-08-16 19:42:14,631 DEBUG [16020,MainThread] [pymodbus.logging] [logging.py:103]: recv: 0x0 0x15 0x0 0x0 0x0 0x6 0x2 0x3 0x9d 0x1 0x0 0x2 old_data:  addr=None
2024-08-16 19:42:14,632 DEBUG [16020,MainThread] [pymodbus.logging] [logging.py:103]: Handling data: 0x0 0x15 0x0 0x0 0x0 0x6 0x2 0x3 0x9d 0x1 0x0 0x2
2024-08-16 19:42:14,632 DEBUG [16020,MainThread] [pymodbus.logging] [logging.py:103]: Processing: 0x0 0x15 0x0 0x0 0x0 0x6 0x2 0x3 0x9d 0x1 0x0 0x2
2024-08-16 19:42:14,632 DEBUG [16020,MainThread] [pymodbus.logging] [logging.py:103]: Factory Request[ReadHoldingRegistersRequest': 3]
2024-08-16 19:42:14,632 DEBUG [16020,MainThread] [pymodbus.logging] [logging.py:103]: validate: fc-[3] address-40194: count-2
2024-08-16 19:42:14,632 DEBUG [16020,MainThread] [pymodbus.logging] [logging.py:103]: getValues: fc-[3] address-40194: count-2
2024-08-16 19:42:14,632 DEBUG [16020,MainThread] [pymodbus.logging] [logging.py:103]: send: 0x0 0x15 0x0 0x0 0x0 0x7 0x2 0x3 0x4 0x0 0x0 0x0 0x0
2024-08-16 19:42:15,622 DEBUG [16020,MainThread] [pymodbus.logging] [logging.py:103]: recv: 0x0 0x16 0x0 0x0 0x0 0x6 0x2 0x3 0x9c 0x87 0x0 0x3a old_data:  addr=None
2024-08-16 19:42:15,622 DEBUG [16020,MainThread] [pymodbus.logging] [logging.py:103]: Handling data: 0x0 0x16 0x0 0x0 0x0 0x6 0x2 0x3 0x9c 0x87 0x0 0x3a
2024-08-16 19:42:15,622 DEBUG [16020,MainThread] [pymodbus.logging] [logging.py:103]: Processing: 0x0 0x16 0x0 0x0 0x0 0x6 0x2 0x3 0x9c 0x87 0x0 0x3a
2024-08-16 19:42:15,622 DEBUG [16020,MainThread] [pymodbus.logging] [logging.py:103]: Factory Request[ReadHoldingRegistersRequest': 3]
2024-08-16 19:42:15,622 DEBUG [16020,MainThread] [pymodbus.logging] [logging.py:103]: validate: fc-[3] address-40072: count-58
2024-08-16 19:42:15,623 DEBUG [16020,MainThread] [pymodbus.logging] [logging.py:103]: getValues: fc-[3] address-40072: count-58
2024-08-16 19:42:15,623 DEBUG [16020,MainThread] [pymodbus.logging] [logging.py:103]: send: 0x0 0x16 0x0 0x0 0x0 0x77 0x2 0x3 0x74 0x0 0x0 0x0 0x0 0x0 0x0 0x0 0x0 0x0 0x0 0x0 0x0 0x0 0x0 0x0 0x0 0x0 0x0 0x0 0x0 0x0 0x0 0x0 0x0 0x0 0x0 0x0 0x0 0x0 0x0 0x0 0x0 0x0 0x0 0x0 0x0 0x0 0x0 0x0 0x0 0x0 0x0 0x0 0x0 0x0 0x0 0x0 0x0 0x0 0x0 0x0 0x0 0xbf 0x80 0x0 0x0 0x0 0x0 0x0 0x0 0x0 0x0 0x0 0x0 0x0 0x0 0x0 0x0 0x0 0x0 0x0 0x0 0x0 0x0 0x0 0x0 0x0 0x0 0x0 0x0 0x0 0x0 0x0 0x0 0x0 0x0 0x0 0x0 0x0 0x0 0x0 0x0 0x0 0x0 0x0 0x0 0x0 0x0 0x0 0x0 0x0 0x0 0x0 0x0 0x0 0x0 0x0 0x0 0x0 0x0 0x0 0x0 0x0 0x0 0x0 0x0
2024-08-16 19:42:15,632 DEBUG [16020,MainThread] [pymodbus.logging] [logging.py:103]: recv: 0x0 0x17 0x0 0x0 0x0 0x6 0x2 0x3 0x9d 0x1 0x0 0x2 old_data:  addr=None
2024-08-16 19:42:15,632 DEBUG [16020,MainThread] [pymodbus.logging] [logging.py:103]: Handling data: 0x0 0x17 0x0 0x0 0x0 0x6 0x2 0x3 0x9d 0x1 0x0 0x2
2024-08-16 19:42:15,632 DEBUG [16020,MainThread] [pymodbus.logging] [logging.py:103]: Processing: 0x0 0x17 0x0 0x0 0x0 0x6 0x2 0x3 0x9d 0x1 0x0 0x2
2024-08-16 19:42:15,632 DEBUG [16020,MainThread] [pymodbus.logging] [logging.py:103]: Factory Request[ReadHoldingRegistersRequest': 3]
2024-08-16 19:42:15,632 DEBUG [16020,MainThread] [pymodbus.logging] [logging.py:103]: validate: fc-[3] address-40194: count-2
2024-08-16 19:42:15,633 DEBUG [16020,MainThread] [pymodbus.logging] [logging.py:103]: getValues: fc-[3] address-40194: count-2
2024-08-16 19:42:15,633 DEBUG [16020,MainThread] [pymodbus.logging] [logging.py:103]: send: 0x0 0x17 0x0 0x0 0x0 0x7 0x2 0x3 0x4 0x0 0x0 0x0 0x0
2024-08-16 19:42:16,622 DEBUG [16020,MainThread] [pymodbus.logging] [logging.py:103]: recv: 0x0 0x18 0x0 0x0 0x0 0x6 0x2 0x3 0x9c 0x87 0x0 0x3a old_data:  addr=None
2024-08-16 19:42:16,622 DEBUG [16020,MainThread] [pymodbus.logging] [logging.py:103]: Handling data: 0x0 0x18 0x0 0x0 0x0 0x6 0x2 0x3 0x9c 0x87 0x0 0x3a
2024-08-16 19:42:16,622 DEBUG [16020,MainThread] [pymodbus.logging] [logging.py:103]: Processing: 0x0 0x18 0x0 0x0 0x0 0x6 0x2 0x3 0x9c 0x87 0x0 0x3a
2024-08-16 19:42:16,623 DEBUG [16020,MainThread] [pymodbus.logging] [logging.py:103]: Factory Request[ReadHoldingRegistersRequest': 3]
2024-08-16 19:42:16,623 DEBUG [16020,MainThread] [pymodbus.logging] [logging.py:103]: validate: fc-[3] address-40072: count-58
2024-08-16 19:42:16,623 DEBUG [16020,MainThread] [pymodbus.logging] [logging.py:103]: getValues: fc-[3] address-40072: count-58
2024-08-16 19:42:16,623 DEBUG [16020,MainThread] [pymodbus.logging] [logging.py:103]: send: 0x0 0x18 0x0 0x0 0x0 0x77 0x2 0x3 0x74 0x0 0x0 0x0 0x0 0x0 0x0 0x0 0x0 0x0 0x0 0x0 0x0 0x0 0x0 0x0 0x0 0x0 0x0 0x0 0x0 0x0 0x0 0x0 0x0 0x0 0x0 0x0 0x0 0x0 0x0 0x0 0x0 0x0 0x0 0x0 0x0 0x0 0x0 0x0 0x0 0x0 0x0 0x0 0x0 0x0 0x0 0x0 0x0 0x0 0x0 0x0 0x0 0xbf 0x80 0x0 0x0 0x0 0x0 0x0 0x0 0x0 0x0 0x0 0x0 0x0 0x0 0x0 0x0 0x0 0x0 0x0 0x0 0x0 0x0 0x0 0x0 0x0 0x0 0x0 0x0 0x0 0x0 0x0 0x0 0x0 0x0 0x0 0x0 0x0 0x0 0x0 0x0 0x0 0x0 0x0 0x0 0x0 0x0 0x0 0x0 0x0 0x0 0x0 0x0 0x0 0x0 0x0 0x0 0x0 0x0 0x0 0x0 0x0 0x0 0x0 0x0
2024-08-16 19:42:16,632 DEBUG [16020,MainThread] [pymodbus.logging] [logging.py:103]: recv: 0x0 0x19 0x0 0x0 0x0 0x6 0x2 0x3 0x9d 0x1 0x0 0x2 old_data:  addr=None
2024-08-16 19:42:16,632 DEBUG [16020,MainThread] [pymodbus.logging] [logging.py:103]: Handling data: 0x0 0x19 0x0 0x0 0x0 0x6 0x2 0x3 0x9d 0x1 0x0 0x2
2024-08-16 19:42:16,632 DEBUG [16020,MainThread] [pymodbus.logging] [logging.py:103]: Processing: 0x0 0x19 0x0 0x0 0x0 0x6 0x2 0x3 0x9d 0x1 0x0 0x2
2024-08-16 19:42:16,632 DEBUG [16020,MainThread] [pymodbus.logging] [logging.py:103]: Factory Request[ReadHoldingRegistersRequest': 3]
2024-08-16 19:42:16,632 DEBUG [16020,MainThread] [pymodbus.logging] [logging.py:103]: validate: fc-[3] address-40194: count-2
2024-08-16 19:42:16,632 DEBUG [16020,MainThread] [pymodbus.logging] [logging.py:103]: getValues: fc-[3] address-40194: count-2
2024-08-16 19:42:16,632 DEBUG [16020,MainThread] [pymodbus.logging] [logging.py:103]: send: 0x0 0x19 0x0 0x0 0x0 0x7 0x2 0x3 0x4 0x0 0x0 0x0 0x0
2024-08-16 19:42:17,621 DEBUG [16020,MainThread] [pymodbus.logging] [logging.py:103]: recv: 0x0 0x1a 0x0 0x0 0x0 0x6 0x2 0x3 0x9c 0x87 0x0 0x3a old_data:  addr=None
2024-08-16 19:42:17,621 DEBUG [16020,MainThread] [pymodbus.logging] [logging.py:103]: Handling data: 0x0 0x1a 0x0 0x0 0x0 0x6 0x2 0x3 0x9c 0x87 0x0 0x3a
2024-08-16 19:42:17,621 DEBUG [16020,MainThread] [pymodbus.logging] [logging.py:103]: Processing: 0x0 0x1a 0x0 0x0 0x0 0x6 0x2 0x3 0x9c 0x87 0x0 0x3a
2024-08-16 19:42:17,622 DEBUG [16020,MainThread] [pymodbus.logging] [logging.py:103]: Factory Request[ReadHoldingRegistersRequest': 3]
2024-08-16 19:42:17,622 DEBUG [16020,MainThread] [pymodbus.logging] [logging.py:103]: validate: fc-[3] address-40072: count-58
2024-08-16 19:42:17,622 DEBUG [16020,MainThread] [pymodbus.logging] [logging.py:103]: getValues: fc-[3] address-40072: count-58
2024-08-16 19:42:17,622 DEBUG [16020,MainThread] [pymodbus.logging] [logging.py:103]: send: 0x0 0x1a 0x0 0x0 0x0 0x77 0x2 0x3 0x74 0x0 0x0 0x0 0x0 0x0 0x0 0x0 0x0 0x0 0x0 0x0 0x0 0x0 0x0 0x0 0x0 0x0 0x0 0x0 0x0 0x0 0x0 0x0 0x0 0x0 0x0 0x0 0x0 0x0 0x0 0x0 0x0 0x0 0x0 0x0 0x0 0x0 0x0 0x0 0x0 0x0 0x0 0x0 0x0 0x0 0x0 0x0 0x0 0x0 0x0 0x0 0x0 0xbf 0x80 0x0 0x0 0x0 0x0 0x0 0x0 0x0 0x0 0x0 0x0 0x0 0x0 0x0 0x0 0x0 0x0 0x0 0x0 0x0 0x0 0x0 0x0 0x0 0x0 0x0 0x0 0x0 0x0 0x0 0x0 0x0 0x0 0x0 0x0 0x0 0x0 0x0 0x0 0x0 0x0 0x0 0x0 0x0 0x0 0x0 0x0 0x0 0x0 0x0 0x0 0x0 0x0 0x0 0x0 0x0 0x0 0x0 0x0 0x0 0x0 0x0 0x0
2024-08-16 19:42:17,632 DEBUG [16020,MainThread] [pymodbus.logging] [logging.py:103]: recv: 0x0 0x1b 0x0 0x0 0x0 0x6 0x2 0x3 0x9d 0x1 0x0 0x2 old_data:  addr=None
2024-08-16 19:42:17,632 DEBUG [16020,MainThread] [pymodbus.logging] [logging.py:103]: Handling data: 0x0 0x1b 0x0 0x0 0x0 0x6 0x2 0x3 0x9d 0x1 0x0 0x2
2024-08-16 19:42:17,632 DEBUG [16020,MainThread] [pymodbus.logging] [logging.py:103]: Processing: 0x0 0x1b 0x0 0x0 0x0 0x6 0x2 0x3 0x9d 0x1 0x0 0x2
2024-08-16 19:42:17,632 DEBUG [16020,MainThread] [pymodbus.logging] [logging.py:103]: Factory Request[ReadHoldingRegistersRequest': 3]
2024-08-16 19:42:17,632 DEBUG [16020,MainThread] [pymodbus.logging] [logging.py:103]: validate: fc-[3] address-40194: count-2
2024-08-16 19:42:17,632 DEBUG [16020,MainThread] [pymodbus.logging] [logging.py:103]: getValues: fc-[3] address-40194: count-2
2024-08-16 19:42:17,632 DEBUG [16020,MainThread] [pymodbus.logging] [logging.py:103]: send: 0x0 0x1b 0x0 0x0 0x0 0x7 0x2 0x3 0x4 0x0 0x0 0x0 0x0
2024-08-16 19:42:18,622 DEBUG [16020,MainThread] [pymodbus.logging] [logging.py:103]: recv: 0x0 0x1c 0x0 0x0 0x0 0x6 0x2 0x3 0x9c 0x87 0x0 0x3a old_data:  addr=None
2024-08-16 19:42:18,622 DEBUG [16020,MainThread] [pymodbus.logging] [logging.py:103]: Handling data: 0x0 0x1c 0x0 0x0 0x0 0x6 0x2 0x3 0x9c 0x87 0x0 0x3a
2024-08-16 19:42:18,622 DEBUG [16020,MainThread] [pymodbus.logging] [logging.py:103]: Processing: 0x0 0x1c 0x0 0x0 0x0 0x6 0x2 0x3 0x9c 0x87 0x0 0x3a
2024-08-16 19:42:18,622 DEBUG [16020,MainThread] [pymodbus.logging] [logging.py:103]: Factory Request[ReadHoldingRegistersRequest': 3]
2024-08-16 19:42:18,623 DEBUG [16020,MainThread] [pymodbus.logging] [logging.py:103]: validate: fc-[3] address-40072: count-58
2024-08-16 19:42:18,623 DEBUG [16020,MainThread] [pymodbus.logging] [logging.py:103]: getValues: fc-[3] address-40072: count-58
2024-08-16 19:42:18,623 DEBUG [16020,MainThread] [pymodbus.logging] [logging.py:103]: send: 0x0 0x1c 0x0 0x0 0x0 0x77 0x2 0x3 0x74 0x0 0x0 0x0 0x0 0x0 0x0 0x0 0x0 0x0 0x0 0x0 0x0 0x0 0x0 0x0 0x0 0x0 0x0 0x0 0x0 0x0 0x0 0x0 0x0 0x0 0x0 0x0 0x0 0x0 0x0 0x0 0x0 0x0 0x0 0x0 0x0 0x0 0x0 0x0 0x0 0x0 0x0 0x0 0x0 0x0 0x0 0x0 0x0 0x0 0x0 0x0 0x0 0xbf 0x80 0x0 0x0 0x0 0x0 0x0 0x0 0x0 0x0 0x0 0x0 0x0 0x0 0x0 0x0 0x0 0x0 0x0 0x0 0x0 0x0 0x0 0x0 0x0 0x0 0x0 0x0 0x0 0x0 0x0 0x0 0x0 0x0 0x0 0x0 0x0 0x0 0x0 0x0 0x0 0x0 0x0 0x0 0x0 0x0 0x0 0x0 0x0 0x0 0x0 0x0 0x0 0x0 0x0 0x0 0x0 0x0 0x0 0x0 0x0 0x0 0x0 0x0
2024-08-16 19:42:18,633 DEBUG [16020,MainThread] [pymodbus.logging] [logging.py:103]: recv: 0x0 0x1d 0x0 0x0 0x0 0x6 0x2 0x3 0x9d 0x1 0x0 0x2 old_data:  addr=None
2024-08-16 19:42:18,633 DEBUG [16020,MainThread] [pymodbus.logging] [logging.py:103]: Handling data: 0x0 0x1d 0x0 0x0 0x0 0x6 0x2 0x3 0x9d 0x1 0x0 0x2
2024-08-16 19:42:18,633 DEBUG [16020,MainThread] [pymodbus.logging] [logging.py:103]: Processing: 0x0 0x1d 0x0 0x0 0x0 0x6 0x2 0x3 0x9d 0x1 0x0 0x2
2024-08-16 19:42:18,633 DEBUG [16020,MainThread] [pymodbus.logging] [logging.py:103]: Factory Request[ReadHoldingRegistersRequest': 3]
2024-08-16 19:42:18,633 DEBUG [16020,MainThread] [pymodbus.logging] [logging.py:103]: validate: fc-[3] address-40194: count-2
2024-08-16 19:42:18,634 DEBUG [16020,MainThread] [pymodbus.logging] [logging.py:103]: getValues: fc-[3] address-40194: count-2
2024-08-16 19:42:18,634 DEBUG [16020,MainThread] [pymodbus.logging] [logging.py:103]: send: 0x0 0x1d 0x0 0x0 0x0 0x7 0x2 0x3 0x4 0x0 0x0 0x0 0x0
2024-08-16 19:42:19,622 DEBUG [16020,MainThread] [pymodbus.logging] [logging.py:103]: recv: 0x0 0x1e 0x0 0x0 0x0 0x6 0x2 0x3 0x9c 0x87 0x0 0x3a old_data:  addr=None
2024-08-16 19:42:19,622 DEBUG [16020,MainThread] [pymodbus.logging] [logging.py:103]: Handling data: 0x0 0x1e 0x0 0x0 0x0 0x6 0x2 0x3 0x9c 0x87 0x0 0x3a
2024-08-16 19:42:19,622 DEBUG [16020,MainThread] [pymodbus.logging] [logging.py:103]: Processing: 0x0 0x1e 0x0 0x0 0x0 0x6 0x2 0x3 0x9c 0x87 0x0 0x3a
2024-08-16 19:42:19,622 DEBUG [16020,MainThread] [pymodbus.logging] [logging.py:103]: Factory Request[ReadHoldingRegistersRequest': 3]
2024-08-16 19:42:19,622 DEBUG [16020,MainThread] [pymodbus.logging] [logging.py:103]: validate: fc-[3] address-40072: count-58
2024-08-16 19:42:19,622 DEBUG [16020,MainThread] [pymodbus.logging] [logging.py:103]: getValues: fc-[3] address-40072: count-58
2024-08-16 19:42:19,622 DEBUG [16020,MainThread] [pymodbus.logging] [logging.py:103]: send: 0x0 0x1e 0x0 0x0 0x0 0x77 0x2 0x3 0x74 0x0 0x0 0x0 0x0 0x0 0x0 0x0 0x0 0x0 0x0 0x0 0x0 0x0 0x0 0x0 0x0 0x0 0x0 0x0 0x0 0x0 0x0 0x0 0x0 0x0 0x0 0x0 0x0 0x0 0x0 0x0 0x0 0x0 0x0 0x0 0x0 0x0 0x0 0x0 0x0 0x0 0x0 0x0 0x0 0x0 0x0 0x0 0x0 0x0 0x0 0x0 0x0 0xbf 0x80 0x0 0x0 0x0 0x0 0x0 0x0 0x0 0x0 0x0 0x0 0x0 0x0 0x0 0x0 0x0 0x0 0x0 0x0 0x0 0x0 0x0 0x0 0x0 0x0 0x0 0x0 0x0 0x0 0x0 0x0 0x0 0x0 0x0 0x0 0x0 0x0 0x0 0x0 0x0 0x0 0x0 0x0 0x0 0x0 0x0 0x0 0x0 0x0 0x0 0x0 0x0 0x0 0x0 0x0 0x0 0x0 0x0 0x0 0x0 0x0 0x0 0x0
2024-08-16 19:42:19,632 DEBUG [16020,MainThread] [pymodbus.logging] [logging.py:103]: recv: 0x0 0x1f 0x0 0x0 0x0 0x6 0x2 0x3 0x9d 0x1 0x0 0x2 old_data:  addr=None
2024-08-16 19:42:19,632 DEBUG [16020,MainThread] [pymodbus.logging] [logging.py:103]: Handling data: 0x0 0x1f 0x0 0x0 0x0 0x6 0x2 0x3 0x9d 0x1 0x0 0x2
2024-08-16 19:42:19,632 DEBUG [16020,MainThread] [pymodbus.logging] [logging.py:103]: Processing: 0x0 0x1f 0x0 0x0 0x0 0x6 0x2 0x3 0x9d 0x1 0x0 0x2
2024-08-16 19:42:19,632 DEBUG [16020,MainThread] [pymodbus.logging] [logging.py:103]: Factory Request[ReadHoldingRegistersRequest': 3]
2024-08-16 19:42:19,632 DEBUG [16020,MainThread] [pymodbus.logging] [logging.py:103]: validate: fc-[3] address-40194: count-2
2024-08-16 19:42:19,632 DEBUG [16020,MainThread] [pymodbus.logging] [logging.py:103]: getValues: fc-[3] address-40194: count-2
2024-08-16 19:42:19,633 DEBUG [16020,MainThread] [pymodbus.logging] [logging.py:103]: send: 0x0 0x1f 0x0 0x0 0x0 0x7 0x2 0x3 0x4 0x0 0x0 0x0 0x0
2024-08-16 19:42:20,622 DEBUG [16020,MainThread] [pymodbus.logging] [logging.py:103]: recv: 0x0 0x20 0x0 0x0 0x0 0x6 0x2 0x3 0x9c 0x87 0x0 0x3a old_data:  addr=None
2024-08-16 19:42:20,622 DEBUG [16020,MainThread] [pymodbus.logging] [logging.py:103]: Handling data: 0x0 0x20 0x0 0x0 0x0 0x6 0x2 0x3 0x9c 0x87 0x0 0x3a
2024-08-16 19:42:20,622 DEBUG [16020,MainThread] [pymodbus.logging] [logging.py:103]: Processing: 0x0 0x20 0x0 0x0 0x0 0x6 0x2 0x3 0x9c 0x87 0x0 0x3a
2024-08-16 19:42:20,623 DEBUG [16020,MainThread] [pymodbus.logging] [logging.py:103]: Factory Request[ReadHoldingRegistersRequest': 3]
2024-08-16 19:42:20,623 DEBUG [16020,MainThread] [pymodbus.logging] [logging.py:103]: validate: fc-[3] address-40072: count-58
2024-08-16 19:42:20,624 DEBUG [16020,MainThread] [pymodbus.logging] [logging.py:103]: getValues: fc-[3] address-40072: count-58
2024-08-16 19:42:20,624 DEBUG [16020,MainThread] [pymodbus.logging] [logging.py:103]: send: 0x0 0x20 0x0 0x0 0x0 0x77 0x2 0x3 0x74 0x0 0x0 0x0 0x0 0x0 0x0 0x0 0x0 0x0 0x0 0x0 0x0 0x0 0x0 0x0 0x0 0x0 0x0 0x0 0x0 0x0 0x0 0x0 0x0 0x0 0x0 0x0 0x0 0x0 0x0 0x0 0x0 0x0 0x0 0x0 0x0 0x0 0x0 0x0 0x0 0x0 0x0 0x0 0x0 0x0 0x0 0x0 0x0 0x0 0x0 0x0 0x0 0xbf 0x80 0x0 0x0 0x0 0x0 0x0 0x0 0x0 0x0 0x0 0x0 0x0 0x0 0x0 0x0 0x0 0x0 0x0 0x0 0x0 0x0 0x0 0x0 0x0 0x0 0x0 0x0 0x0 0x0 0x0 0x0 0x0 0x0 0x0 0x0 0x0 0x0 0x0 0x0 0x0 0x0 0x0 0x0 0x0 0x0 0x0 0x0 0x0 0x0 0x0 0x0 0x0 0x0 0x0 0x0 0x0 0x0 0x0 0x0 0x0 0x0 0x0 0x0
2024-08-16 19:42:20,633 DEBUG [16020,MainThread] [pymodbus.logging] [logging.py:103]: recv: 0x0 0x21 0x0 0x0 0x0 0x6 0x2 0x3 0x9d 0x1 0x0 0x2 old_data:  addr=None
2024-08-16 19:42:20,634 DEBUG [16020,MainThread] [pymodbus.logging] [logging.py:103]: Handling data: 0x0 0x21 0x0 0x0 0x0 0x6 0x2 0x3 0x9d 0x1 0x0 0x2
2024-08-16 19:42:20,634 DEBUG [16020,MainThread] [pymodbus.logging] [logging.py:103]: Processing: 0x0 0x21 0x0 0x0 0x0 0x6 0x2 0x3 0x9d 0x1 0x0 0x2
2024-08-16 19:42:20,634 DEBUG [16020,MainThread] [pymodbus.logging] [logging.py:103]: Factory Request[ReadHoldingRegistersRequest': 3]
2024-08-16 19:42:20,635 DEBUG [16020,MainThread] [pymodbus.logging] [logging.py:103]: validate: fc-[3] address-40194: count-2
2024-08-16 19:42:20,635 DEBUG [16020,MainThread] [pymodbus.logging] [logging.py:103]: getValues: fc-[3] address-40194: count-2
2024-08-16 19:42:20,635 DEBUG [16020,MainThread] [pymodbus.logging] [logging.py:103]: send: 0x0 0x21 0x0 0x0 0x0 0x7 0x2 0x3 0x4 0x0 0x0 0x0 0x0
2024-08-16 19:42:21,622 DEBUG [16020,MainThread] [pymodbus.logging] [logging.py:103]: recv: 0x0 0x22 0x0 0x0 0x0 0x6 0x2 0x3 0x9c 0x87 0x0 0x3a old_data:  addr=None
2024-08-16 19:42:21,622 DEBUG [16020,MainThread] [pymodbus.logging] [logging.py:103]: Handling data: 0x0 0x22 0x0 0x0 0x0 0x6 0x2 0x3 0x9c 0x87 0x0 0x3a
2024-08-16 19:42:21,622 DEBUG [16020,MainThread] [pymodbus.logging] [logging.py:103]: Processing: 0x0 0x22 0x0 0x0 0x0 0x6 0x2 0x3 0x9c 0x87 0x0 0x3a
2024-08-16 19:42:21,622 DEBUG [16020,MainThread] [pymodbus.logging] [logging.py:103]: Factory Request[ReadHoldingRegistersRequest': 3]
2024-08-16 19:42:21,622 DEBUG [16020,MainThread] [pymodbus.logging] [logging.py:103]: validate: fc-[3] address-40072: count-58
2024-08-16 19:42:21,622 DEBUG [16020,MainThread] [pymodbus.logging] [logging.py:103]: getValues: fc-[3] address-40072: count-58
2024-08-16 19:42:21,622 DEBUG [16020,MainThread] [pymodbus.logging] [logging.py:103]: send: 0x0 0x22 0x0 0x0 0x0 0x77 0x2 0x3 0x74 0x0 0x0 0x0 0x0 0x0 0x0 0x0 0x0 0x0 0x0 0x0 0x0 0x0 0x0 0x0 0x0 0x0 0x0 0x0 0x0 0x0 0x0 0x0 0x0 0x0 0x0 0x0 0x0 0x0 0x0 0x0 0x0 0x0 0x0 0x0 0x0 0x0 0x0 0x0 0x0 0x0 0x0 0x0 0x0 0x0 0x0 0x0 0x0 0x0 0x0 0x0 0x0 0xbf 0x80 0x0 0x0 0x0 0x0 0x0 0x0 0x0 0x0 0x0 0x0 0x0 0x0 0x0 0x0 0x0 0x0 0x0 0x0 0x0 0x0 0x0 0x0 0x0 0x0 0x0 0x0 0x0 0x0 0x0 0x0 0x0 0x0 0x0 0x0 0x0 0x0 0x0 0x0 0x0 0x0 0x0 0x0 0x0 0x0 0x0 0x0 0x0 0x0 0x0 0x0 0x0 0x0 0x0 0x0 0x0 0x0 0x0 0x0 0x0 0x0 0x0 0x0
2024-08-16 19:42:21,632 DEBUG [16020,MainThread] [pymodbus.logging] [logging.py:103]: recv: 0x0 0x23 0x0 0x0 0x0 0x6 0x2 0x3 0x9d 0x1 0x0 0x2 old_data:  addr=None
2024-08-16 19:42:21,632 DEBUG [16020,MainThread] [pymodbus.logging] [logging.py:103]: Handling data: 0x0 0x23 0x0 0x0 0x0 0x6 0x2 0x3 0x9d 0x1 0x0 0x2
2024-08-16 19:42:21,632 DEBUG [16020,MainThread] [pymodbus.logging] [logging.py:103]: Processing: 0x0 0x23 0x0 0x0 0x0 0x6 0x2 0x3 0x9d 0x1 0x0 0x2
2024-08-16 19:42:21,632 DEBUG [16020,MainThread] [pymodbus.logging] [logging.py:103]: Factory Request[ReadHoldingRegistersRequest': 3]
2024-08-16 19:42:21,632 DEBUG [16020,MainThread] [pymodbus.logging] [logging.py:103]: validate: fc-[3] address-40194: count-2
2024-08-16 19:42:21,632 DEBUG [16020,MainThread] [pymodbus.logging] [logging.py:103]: getValues: fc-[3] address-40194: count-2
2024-08-16 19:42:21,632 DEBUG [16020,MainThread] [pymodbus.logging] [logging.py:103]: send: 0x0 0x23 0x0 0x0 0x0 0x7 0x2 0x3 0x4 0x0 0x0 0x0 0x0
2024-08-16 19:42:22,622 DEBUG [16020,MainThread] [pymodbus.logging] [logging.py:103]: recv: 0x0 0x24 0x0 0x0 0x0 0x6 0x2 0x3 0x9c 0x87 0x0 0x3a old_data:  addr=None
2024-08-16 19:42:22,622 DEBUG [16020,MainThread] [pymodbus.logging] [logging.py:103]: Handling data: 0x0 0x24 0x0 0x0 0x0 0x6 0x2 0x3 0x9c 0x87 0x0 0x3a
2024-08-16 19:42:22,622 DEBUG [16020,MainThread] [pymodbus.logging] [logging.py:103]: Processing: 0x0 0x24 0x0 0x0 0x0 0x6 0x2 0x3 0x9c 0x87 0x0 0x3a
2024-08-16 19:42:22,622 DEBUG [16020,MainThread] [pymodbus.logging] [logging.py:103]: Factory Request[ReadHoldingRegistersRequest': 3]
2024-08-16 19:42:22,623 DEBUG [16020,MainThread] [pymodbus.logging] [logging.py:103]: validate: fc-[3] address-40072: count-58
2024-08-16 19:42:22,623 DEBUG [16020,MainThread] [pymodbus.logging] [logging.py:103]: getValues: fc-[3] address-40072: count-58
2024-08-16 19:42:22,623 DEBUG [16020,MainThread] [pymodbus.logging] [logging.py:103]: send: 0x0 0x24 0x0 0x0 0x0 0x77 0x2 0x3 0x74 0x0 0x0 0x0 0x0 0x0 0x0 0x0 0x0 0x0 0x0 0x0 0x0 0x0 0x0 0x0 0x0 0x0 0x0 0x0 0x0 0x0 0x0 0x0 0x0 0x0 0x0 0x0 0x0 0x0 0x0 0x0 0x0 0x0 0x0 0x0 0x0 0x0 0x0 0x0 0x0 0x0 0x0 0x0 0x0 0x0 0x0 0x0 0x0 0x0 0x0 0x0 0x0 0xbf 0x80 0x0 0x0 0x0 0x0 0x0 0x0 0x0 0x0 0x0 0x0 0x0 0x0 0x0 0x0 0x0 0x0 0x0 0x0 0x0 0x0 0x0 0x0 0x0 0x0 0x0 0x0 0x0 0x0 0x0 0x0 0x0 0x0 0x0 0x0 0x0 0x0 0x0 0x0 0x0 0x0 0x0 0x0 0x0 0x0 0x0 0x0 0x0 0x0 0x0 0x0 0x0 0x0 0x0 0x0 0x0 0x0 0x0 0x0 0x0 0x0 0x0 0x0
2024-08-16 19:42:22,632 DEBUG [16020,MainThread] [pymodbus.logging] [logging.py:103]: recv: 0x0 0x25 0x0 0x0 0x0 0x6 0x2 0x3 0x9d 0x1 0x0 0x2 old_data:  addr=None
2024-08-16 19:42:22,633 DEBUG [16020,MainThread] [pymodbus.logging] [logging.py:103]: Handling data: 0x0 0x25 0x0 0x0 0x0 0x6 0x2 0x3 0x9d 0x1 0x0 0x2
2024-08-16 19:42:22,633 DEBUG [16020,MainThread] [pymodbus.logging] [logging.py:103]: Processing: 0x0 0x25 0x0 0x0 0x0 0x6 0x2 0x3 0x9d 0x1 0x0 0x2
2024-08-16 19:42:22,633 DEBUG [16020,MainThread] [pymodbus.logging] [logging.py:103]: Factory Request[ReadHoldingRegistersRequest': 3]
2024-08-16 19:42:22,633 DEBUG [16020,MainThread] [pymodbus.logging] [logging.py:103]: validate: fc-[3] address-40194: count-2
2024-08-16 19:42:22,633 DEBUG [16020,MainThread] [pymodbus.logging] [logging.py:103]: getValues: fc-[3] address-40194: count-2
2024-08-16 19:42:22,633 DEBUG [16020,MainThread] [pymodbus.logging] [logging.py:103]: send: 0x0 0x25 0x0 0x0 0x0 0x7 0x2 0x3 0x4 0x0 0x0 0x0 0x0
2024-08-16 19:42:23,621 DEBUG [16020,MainThread] [pymodbus.logging] [logging.py:103]: recv: 0x0 0x26 0x0 0x0 0x0 0x6 0x2 0x3 0x9c 0x87 0x0 0x3a old_data:  addr=None
2024-08-16 19:42:23,622 DEBUG [16020,MainThread] [pymodbus.logging] [logging.py:103]: Handling data: 0x0 0x26 0x0 0x0 0x0 0x6 0x2 0x3 0x9c 0x87 0x0 0x3a
2024-08-16 19:42:23,622 DEBUG [16020,MainThread] [pymodbus.logging] [logging.py:103]: Processing: 0x0 0x26 0x0 0x0 0x0 0x6 0x2 0x3 0x9c 0x87 0x0 0x3a
2024-08-16 19:42:23,622 DEBUG [16020,MainThread] [pymodbus.logging] [logging.py:103]: Factory Request[ReadHoldingRegistersRequest': 3]
2024-08-16 19:42:23,622 DEBUG [16020,MainThread] [pymodbus.logging] [logging.py:103]: validate: fc-[3] address-40072: count-58
2024-08-16 19:42:23,622 DEBUG [16020,MainThread] [pymodbus.logging] [logging.py:103]: getValues: fc-[3] address-40072: count-58
2024-08-16 19:42:23,623 DEBUG [16020,MainThread] [pymodbus.logging] [logging.py:103]: send: 0x0 0x26 0x0 0x0 0x0 0x77 0x2 0x3 0x74 0x0 0x0 0x0 0x0 0x0 0x0 0x0 0x0 0x0 0x0 0x0 0x0 0x0 0x0 0x0 0x0 0x0 0x0 0x0 0x0 0x0 0x0 0x0 0x0 0x0 0x0 0x0 0x0 0x0 0x0 0x0 0x0 0x0 0x0 0x0 0x0 0x0 0x0 0x0 0x0 0x0 0x0 0x0 0x0 0x0 0x0 0x0 0x0 0x0 0x0 0x0 0x0 0xbf 0x80 0x0 0x0 0x0 0x0 0x0 0x0 0x0 0x0 0x0 0x0 0x0 0x0 0x0 0x0 0x0 0x0 0x0 0x0 0x0 0x0 0x0 0x0 0x0 0x0 0x0 0x0 0x0 0x0 0x0 0x0 0x0 0x0 0x0 0x0 0x0 0x0 0x0 0x0 0x0 0x0 0x0 0x0 0x0 0x0 0x0 0x0 0x0 0x0 0x0 0x0 0x0 0x0 0x0 0x0 0x0 0x0 0x0 0x0 0x0 0x0 0x0 0x0
2024-08-16 19:42:23,633 DEBUG [16020,MainThread] [pymodbus.logging] [logging.py:103]: recv: 0x0 0x27 0x0 0x0 0x0 0x6 0x2 0x3 0x9d 0x1 0x0 0x2 old_data:  addr=None
2024-08-16 19:42:23,633 DEBUG [16020,MainThread] [pymodbus.logging] [logging.py:103]: Handling data: 0x0 0x27 0x0 0x0 0x0 0x6 0x2 0x3 0x9d 0x1 0x0 0x2
2024-08-16 19:42:23,633 DEBUG [16020,MainThread] [pymodbus.logging] [logging.py:103]: Processing: 0x0 0x27 0x0 0x0 0x0 0x6 0x2 0x3 0x9d 0x1 0x0 0x2
2024-08-16 19:42:23,633 DEBUG [16020,MainThread] [pymodbus.logging] [logging.py:103]: Factory Request[ReadHoldingRegistersRequest': 3]
2024-08-16 19:42:23,633 DEBUG [16020,MainThread] [pymodbus.logging] [logging.py:103]: validate: fc-[3] address-40194: count-2
2024-08-16 19:42:23,634 DEBUG [16020,MainThread] [pymodbus.logging] [logging.py:103]: getValues: fc-[3] address-40194: count-2
2024-08-16 19:42:23,634 DEBUG [16020,MainThread] [pymodbus.logging] [logging.py:103]: send: 0x0 0x27 0x0 0x0 0x0 0x7 0x2 0x3 0x4 0x0 0x0 0x0 0x0
2024-08-16 19:42:24,622 DEBUG [16020,MainThread] [pymodbus.logging] [logging.py:103]: recv: 0x0 0x28 0x0 0x0 0x0 0x6 0x2 0x3 0x9c 0x87 0x0 0x3a old_data:  addr=None
2024-08-16 19:42:24,622 DEBUG [16020,MainThread] [pymodbus.logging] [logging.py:103]: Handling data: 0x0 0x28 0x0 0x0 0x0 0x6 0x2 0x3 0x9c 0x87 0x0 0x3a
2024-08-16 19:42:24,622 DEBUG [16020,MainThread] [pymodbus.logging] [logging.py:103]: Processing: 0x0 0x28 0x0 0x0 0x0 0x6 0x2 0x3 0x9c 0x87 0x0 0x3a
2024-08-16 19:42:24,622 DEBUG [16020,MainThread] [pymodbus.logging] [logging.py:103]: Factory Request[ReadHoldingRegistersRequest': 3]
2024-08-16 19:42:24,623 DEBUG [16020,MainThread] [pymodbus.logging] [logging.py:103]: validate: fc-[3] address-40072: count-58
2024-08-16 19:42:24,623 DEBUG [16020,MainThread] [pymodbus.logging] [logging.py:103]: getValues: fc-[3] address-40072: count-58
2024-08-16 19:42:24,623 DEBUG [16020,MainThread] [pymodbus.logging] [logging.py:103]: send: 0x0 0x28 0x0 0x0 0x0 0x77 0x2 0x3 0x74 0x0 0x0 0x0 0x0 0x0 0x0 0x0 0x0 0x0 0x0 0x0 0x0 0x0 0x0 0x0 0x0 0x0 0x0 0x0 0x0 0x0 0x0 0x0 0x0 0x0 0x0 0x0 0x0 0x0 0x0 0x0 0x0 0x0 0x0 0x0 0x0 0x0 0x0 0x0 0x0 0x0 0x0 0x0 0x0 0x0 0x0 0x0 0x0 0x0 0x0 0x0 0x0 0xbf 0x80 0x0 0x0 0x0 0x0 0x0 0x0 0x0 0x0 0x0 0x0 0x0 0x0 0x0 0x0 0x0 0x0 0x0 0x0 0x0 0x0 0x0 0x0 0x0 0x0 0x0 0x0 0x0 0x0 0x0 0x0 0x0 0x0 0x0 0x0 0x0 0x0 0x0 0x0 0x0 0x0 0x0 0x0 0x0 0x0 0x0 0x0 0x0 0x0 0x0 0x0 0x0 0x0 0x0 0x0 0x0 0x0 0x0 0x0 0x0 0x0 0x0 0x0
2024-08-16 19:42:24,634 DEBUG [16020,MainThread] [pymodbus.logging] [logging.py:103]: recv: 0x0 0x29 0x0 0x0 0x0 0x6 0x2 0x3 0x9d 0x1 0x0 0x2 old_data:  addr=None
2024-08-16 19:42:24,634 DEBUG [16020,MainThread] [pymodbus.logging] [logging.py:103]: Handling data: 0x0 0x29 0x0 0x0 0x0 0x6 0x2 0x3 0x9d 0x1 0x0 0x2
2024-08-16 19:42:24,634 DEBUG [16020,MainThread] [pymodbus.logging] [logging.py:103]: Processing: 0x0 0x29 0x0 0x0 0x0 0x6 0x2 0x3 0x9d 0x1 0x0 0x2
2024-08-16 19:42:24,634 DEBUG [16020,MainThread] [pymodbus.logging] [logging.py:103]: Factory Request[ReadHoldingRegistersRequest': 3]
2024-08-16 19:42:24,635 DEBUG [16020,MainThread] [pymodbus.logging] [logging.py:103]: validate: fc-[3] address-40194: count-2
2024-08-16 19:42:24,635 DEBUG [16020,MainThread] [pymodbus.logging] [logging.py:103]: getValues: fc-[3] address-40194: count-2
2024-08-16 19:42:24,635 DEBUG [16020,MainThread] [pymodbus.logging] [logging.py:103]: send: 0x0 0x29 0x0 0x0 0x0 0x7 0x2 0x3 0x4 0x0 0x0 0x0 0x0
2024-08-16 19:42:25,621 DEBUG [16020,MainThread] [pymodbus.logging] [logging.py:103]: recv: 0x0 0x2a 0x0 0x0 0x0 0x6 0x2 0x3 0x9c 0x87 0x0 0x3a old_data:  addr=None
2024-08-16 19:42:25,623 DEBUG [16020,MainThread] [pymodbus.logging] [logging.py:103]: Handling data: 0x0 0x2a 0x0 0x0 0x0 0x6 0x2 0x3 0x9c 0x87 0x0 0x3a
2024-08-16 19:42:25,623 DEBUG [16020,MainThread] [pymodbus.logging] [logging.py:103]: Processing: 0x0 0x2a 0x0 0x0 0x0 0x6 0x2 0x3 0x9c 0x87 0x0 0x3a
2024-08-16 19:42:25,623 DEBUG [16020,MainThread] [pymodbus.logging] [logging.py:103]: Factory Request[ReadHoldingRegistersRequest': 3]
2024-08-16 19:42:25,624 DEBUG [16020,MainThread] [pymodbus.logging] [logging.py:103]: validate: fc-[3] address-40072: count-58
2024-08-16 19:42:25,624 DEBUG [16020,MainThread] [pymodbus.logging] [logging.py:103]: getValues: fc-[3] address-40072: count-58
2024-08-16 19:42:25,624 DEBUG [16020,MainThread] [pymodbus.logging] [logging.py:103]: send: 0x0 0x2a 0x0 0x0 0x0 0x77 0x2 0x3 0x74 0x0 0x0 0x0 0x0 0x0 0x0 0x0 0x0 0x0 0x0 0x0 0x0 0x0 0x0 0x0 0x0 0x0 0x0 0x0 0x0 0x0 0x0 0x0 0x0 0x0 0x0 0x0 0x0 0x0 0x0 0x0 0x0 0x0 0x0 0x0 0x0 0x0 0x0 0x0 0x0 0x0 0x0 0x0 0x0 0x0 0x0 0x0 0x0 0x0 0x0 0x0 0x0 0xbf 0x80 0x0 0x0 0x0 0x0 0x0 0x0 0x0 0x0 0x0 0x0 0x0 0x0 0x0 0x0 0x0 0x0 0x0 0x0 0x0 0x0 0x0 0x0 0x0 0x0 0x0 0x0 0x0 0x0 0x0 0x0 0x0 0x0 0x0 0x0 0x0 0x0 0x0 0x0 0x0 0x0 0x0 0x0 0x0 0x0 0x0 0x0 0x0 0x0 0x0 0x0 0x0 0x0 0x0 0x0 0x0 0x0 0x0 0x0 0x0 0x0 0x0 0x0
2024-08-16 19:42:25,634 DEBUG [16020,MainThread] [pymodbus.logging] [logging.py:103]: recv: 0x0 0x2b 0x0 0x0 0x0 0x6 0x2 0x3 0x9d 0x1 0x0 0x2 old_data:  addr=None
2024-08-16 19:42:25,634 DEBUG [16020,MainThread] [pymodbus.logging] [logging.py:103]: Handling data: 0x0 0x2b 0x0 0x0 0x0 0x6 0x2 0x3 0x9d 0x1 0x0 0x2
2024-08-16 19:42:25,634 DEBUG [16020,MainThread] [pymodbus.logging] [logging.py:103]: Processing: 0x0 0x2b 0x0 0x0 0x0 0x6 0x2 0x3 0x9d 0x1 0x0 0x2
2024-08-16 19:42:25,635 DEBUG [16020,MainThread] [pymodbus.logging] [logging.py:103]: Factory Request[ReadHoldingRegistersRequest': 3]
2024-08-16 19:42:25,635 DEBUG [16020,MainThread] [pymodbus.logging] [logging.py:103]: validate: fc-[3] address-40194: count-2
2024-08-16 19:42:25,636 DEBUG [16020,MainThread] [pymodbus.logging] [logging.py:103]: getValues: fc-[3] address-40194: count-2
2024-08-16 19:42:25,636 DEBUG [16020,MainThread] [pymodbus.logging] [logging.py:103]: send: 0x0 0x2b 0x0 0x0 0x0 0x7 0x2 0x3 0x4 0x0 0x0 0x0 0x0
2024-08-16 19:42:26,622 DEBUG [16020,MainThread] [pymodbus.logging] [logging.py:103]: recv: 0x0 0x2c 0x0 0x0 0x0 0x6 0x2 0x3 0x9c 0x87 0x0 0x3a old_data:  addr=None
2024-08-16 19:42:26,622 DEBUG [16020,MainThread] [pymodbus.logging] [logging.py:103]: Handling data: 0x0 0x2c 0x0 0x0 0x0 0x6 0x2 0x3 0x9c 0x87 0x0 0x3a
2024-08-16 19:42:26,622 DEBUG [16020,MainThread] [pymodbus.logging] [logging.py:103]: Processing: 0x0 0x2c 0x0 0x0 0x0 0x6 0x2 0x3 0x9c 0x87 0x0 0x3a
2024-08-16 19:42:26,623 DEBUG [16020,MainThread] [pymodbus.logging] [logging.py:103]: Factory Request[ReadHoldingRegistersRequest': 3]
2024-08-16 19:42:26,623 DEBUG [16020,MainThread] [pymodbus.logging] [logging.py:103]: validate: fc-[3] address-40072: count-58
2024-08-16 19:42:26,623 DEBUG [16020,MainThread] [pymodbus.logging] [logging.py:103]: getValues: fc-[3] address-40072: count-58
2024-08-16 19:42:26,624 DEBUG [16020,MainThread] [pymodbus.logging] [logging.py:103]: send: 0x0 0x2c 0x0 0x0 0x0 0x77 0x2 0x3 0x74 0x0 0x0 0x0 0x0 0x0 0x0 0x0 0x0 0x0 0x0 0x0 0x0 0x0 0x0 0x0 0x0 0x0 0x0 0x0 0x0 0x0 0x0 0x0 0x0 0x0 0x0 0x0 0x0 0x0 0x0 0x0 0x0 0x0 0x0 0x0 0x0 0x0 0x0 0x0 0x0 0x0 0x0 0x0 0x0 0x0 0x0 0x0 0x0 0x0 0x0 0x0 0x0 0xbf 0x80 0x0 0x0 0x0 0x0 0x0 0x0 0x0 0x0 0x0 0x0 0x0 0x0 0x0 0x0 0x0 0x0 0x0 0x0 0x0 0x0 0x0 0x0 0x0 0x0 0x0 0x0 0x0 0x0 0x0 0x0 0x0 0x0 0x0 0x0 0x0 0x0 0x0 0x0 0x0 0x0 0x0 0x0 0x0 0x0 0x0 0x0 0x0 0x0 0x0 0x0 0x0 0x0 0x0 0x0 0x0 0x0 0x0 0x0 0x0 0x0 0x0 0x0
2024-08-16 19:42:26,634 DEBUG [16020,MainThread] [pymodbus.logging] [logging.py:103]: recv: 0x0 0x2d 0x0 0x0 0x0 0x6 0x2 0x3 0x9d 0x1 0x0 0x2 old_data:  addr=None
2024-08-16 19:42:26,634 DEBUG [16020,MainThread] [pymodbus.logging] [logging.py:103]: Handling data: 0x0 0x2d 0x0 0x0 0x0 0x6 0x2 0x3 0x9d 0x1 0x0 0x2
2024-08-16 19:42:26,635 DEBUG [16020,MainThread] [pymodbus.logging] [logging.py:103]: Processing: 0x0 0x2d 0x0 0x0 0x0 0x6 0x2 0x3 0x9d 0x1 0x0 0x2
2024-08-16 19:42:26,635 DEBUG [16020,MainThread] [pymodbus.logging] [logging.py:103]: Factory Request[ReadHoldingRegistersRequest': 3]
2024-08-16 19:42:26,635 DEBUG [16020,MainThread] [pymodbus.logging] [logging.py:103]: validate: fc-[3] address-40194: count-2
2024-08-16 19:42:26,635 DEBUG [16020,MainThread] [pymodbus.logging] [logging.py:103]: getValues: fc-[3] address-40194: count-2
2024-08-16 19:42:26,636 DEBUG [16020,MainThread] [pymodbus.logging] [logging.py:103]: send: 0x0 0x2d 0x0 0x0 0x0 0x7 0x2 0x3 0x4 0x0 0x0 0x0 0x0
2024-08-16 19:42:27,622 DEBUG [16020,MainThread] [pymodbus.logging] [logging.py:103]: recv: 0x0 0x2e 0x0 0x0 0x0 0x6 0x2 0x3 0x9c 0x87 0x0 0x3a old_data:  addr=None
2024-08-16 19:42:27,622 DEBUG [16020,MainThread] [pymodbus.logging] [logging.py:103]: Handling data: 0x0 0x2e 0x0 0x0 0x0 0x6 0x2 0x3 0x9c 0x87 0x0 0x3a
2024-08-16 19:42:27,622 DEBUG [16020,MainThread] [pymodbus.logging] [logging.py:103]: Processing: 0x0 0x2e 0x0 0x0 0x0 0x6 0x2 0x3 0x9c 0x87 0x0 0x3a
2024-08-16 19:42:27,622 DEBUG [16020,MainThread] [pymodbus.logging] [logging.py:103]: Factory Request[ReadHoldingRegistersRequest': 3]
2024-08-16 19:42:27,622 DEBUG [16020,MainThread] [pymodbus.logging] [logging.py:103]: validate: fc-[3] address-40072: count-58
2024-08-16 19:42:27,622 DEBUG [16020,MainThread] [pymodbus.logging] [logging.py:103]: getValues: fc-[3] address-40072: count-58
2024-08-16 19:42:27,622 DEBUG [16020,MainThread] [pymodbus.logging] [logging.py:103]: send: 0x0 0x2e 0x0 0x0 0x0 0x77 0x2 0x3 0x74 0x0 0x0 0x0 0x0 0x0 0x0 0x0 0x0 0x0 0x0 0x0 0x0 0x0 0x0 0x0 0x0 0x0 0x0 0x0 0x0 0x0 0x0 0x0 0x0 0x0 0x0 0x0 0x0 0x0 0x0 0x0 0x0 0x0 0x0 0x0 0x0 0x0 0x0 0x0 0x0 0x0 0x0 0x0 0x0 0x0 0x0 0x0 0x0 0x0 0x0 0x0 0x0 0xbf 0x80 0x0 0x0 0x0 0x0 0x0 0x0 0x0 0x0 0x0 0x0 0x0 0x0 0x0 0x0 0x0 0x0 0x0 0x0 0x0 0x0 0x0 0x0 0x0 0x0 0x0 0x0 0x0 0x0 0x0 0x0 0x0 0x0 0x0 0x0 0x0 0x0 0x0 0x0 0x0 0x0 0x0 0x0 0x0 0x0 0x0 0x0 0x0 0x0 0x0 0x0 0x0 0x0 0x0 0x0 0x0 0x0 0x0 0x0 0x0 0x0 0x0 0x0
2024-08-16 19:42:27,632 DEBUG [16020,MainThread] [pymodbus.logging] [logging.py:103]: recv: 0x0 0x2f 0x0 0x0 0x0 0x6 0x2 0x3 0x9d 0x1 0x0 0x2 old_data:  addr=None
2024-08-16 19:42:27,632 DEBUG [16020,MainThread] [pymodbus.logging] [logging.py:103]: Handling data: 0x0 0x2f 0x0 0x0 0x0 0x6 0x2 0x3 0x9d 0x1 0x0 0x2
2024-08-16 19:42:27,632 DEBUG [16020,MainThread] [pymodbus.logging] [logging.py:103]: Processing: 0x0 0x2f 0x0 0x0 0x0 0x6 0x2 0x3 0x9d 0x1 0x0 0x2
2024-08-16 19:42:27,632 DEBUG [16020,MainThread] [pymodbus.logging] [logging.py:103]: Factory Request[ReadHoldingRegistersRequest': 3]
2024-08-16 19:42:27,632 DEBUG [16020,MainThread] [pymodbus.logging] [logging.py:103]: validate: fc-[3] address-40194: count-2
2024-08-16 19:42:27,632 DEBUG [16020,MainThread] [pymodbus.logging] [logging.py:103]: getValues: fc-[3] address-40194: count-2
2024-08-16 19:42:27,632 DEBUG [16020,MainThread] [pymodbus.logging] [logging.py:103]: send: 0x0 0x2f 0x0 0x0 0x0 0x7 0x2 0x3 0x4 0x0 0x0 0x0 0x0
2024-08-16 19:42:28,621 DEBUG [16020,MainThread] [pymodbus.logging] [logging.py:103]: recv: 0x0 0x30 0x0 0x0 0x0 0x6 0x2 0x3 0x9c 0x87 0x0 0x3a old_data:  addr=None
2024-08-16 19:42:28,622 DEBUG [16020,MainThread] [pymodbus.logging] [logging.py:103]: Handling data: 0x0 0x30 0x0 0x0 0x0 0x6 0x2 0x3 0x9c 0x87 0x0 0x3a
2024-08-16 19:42:28,622 DEBUG [16020,MainThread] [pymodbus.logging] [logging.py:103]: Processing: 0x0 0x30 0x0 0x0 0x0 0x6 0x2 0x3 0x9c 0x87 0x0 0x3a
2024-08-16 19:42:28,622 DEBUG [16020,MainThread] [pymodbus.logging] [logging.py:103]: Factory Request[ReadHoldingRegistersRequest': 3]
2024-08-16 19:42:28,622 DEBUG [16020,MainThread] [pymodbus.logging] [logging.py:103]: validate: fc-[3] address-40072: count-58
2024-08-16 19:42:28,622 DEBUG [16020,MainThread] [pymodbus.logging] [logging.py:103]: getValues: fc-[3] address-40072: count-58
2024-08-16 19:42:28,622 DEBUG [16020,MainThread] [pymodbus.logging] [logging.py:103]: send: 0x0 0x30 0x0 0x0 0x0 0x77 0x2 0x3 0x74 0x0 0x0 0x0 0x0 0x0 0x0 0x0 0x0 0x0 0x0 0x0 0x0 0x0 0x0 0x0 0x0 0x0 0x0 0x0 0x0 0x0 0x0 0x0 0x0 0x0 0x0 0x0 0x0 0x0 0x0 0x0 0x0 0x0 0x0 0x0 0x0 0x0 0x0 0x0 0x0 0x0 0x0 0x0 0x0 0x0 0x0 0x0 0x0 0x0 0x0 0x0 0x0 0xbf 0x80 0x0 0x0 0x0 0x0 0x0 0x0 0x0 0x0 0x0 0x0 0x0 0x0 0x0 0x0 0x0 0x0 0x0 0x0 0x0 0x0 0x0 0x0 0x0 0x0 0x0 0x0 0x0 0x0 0x0 0x0 0x0 0x0 0x0 0x0 0x0 0x0 0x0 0x0 0x0 0x0 0x0 0x0 0x0 0x0 0x0 0x0 0x0 0x0 0x0 0x0 0x0 0x0 0x0 0x0 0x0 0x0 0x0 0x0 0x0 0x0 0x0 0x0
2024-08-16 19:42:28,632 DEBUG [16020,MainThread] [pymodbus.logging] [logging.py:103]: recv: 0x0 0x31 0x0 0x0 0x0 0x6 0x2 0x3 0x9d 0x1 0x0 0x2 old_data:  addr=None
2024-08-16 19:42:28,632 DEBUG [16020,MainThread] [pymodbus.logging] [logging.py:103]: Handling data: 0x0 0x31 0x0 0x0 0x0 0x6 0x2 0x3 0x9d 0x1 0x0 0x2
2024-08-16 19:42:28,632 DEBUG [16020,MainThread] [pymodbus.logging] [logging.py:103]: Processing: 0x0 0x31 0x0 0x0 0x0 0x6 0x2 0x3 0x9d 0x1 0x0 0x2
2024-08-16 19:42:28,632 DEBUG [16020,MainThread] [pymodbus.logging] [logging.py:103]: Factory Request[ReadHoldingRegistersRequest': 3]
2024-08-16 19:42:28,632 DEBUG [16020,MainThread] [pymodbus.logging] [logging.py:103]: validate: fc-[3] address-40194: count-2
2024-08-16 19:42:28,632 DEBUG [16020,MainThread] [pymodbus.logging] [logging.py:103]: getValues: fc-[3] address-40194: count-2
2024-08-16 19:42:28,632 DEBUG [16020,MainThread] [pymodbus.logging] [logging.py:103]: send: 0x0 0x31 0x0 0x0 0x0 0x7 0x2 0x3 0x4 0x0 0x0 0x0 0x0
2024-08-16 19:42:29,623 DEBUG [16020,MainThread] [pymodbus.logging] [logging.py:103]: recv: 0x0 0x32 0x0 0x0 0x0 0x6 0x2 0x3 0x9c 0x87 0x0 0x3a old_data:  addr=None
2024-08-16 19:42:29,623 DEBUG [16020,MainThread] [pymodbus.logging] [logging.py:103]: Handling data: 0x0 0x32 0x0 0x0 0x0 0x6 0x2 0x3 0x9c 0x87 0x0 0x3a
2024-08-16 19:42:29,624 DEBUG [16020,MainThread] [pymodbus.logging] [logging.py:103]: Processing: 0x0 0x32 0x0 0x0 0x0 0x6 0x2 0x3 0x9c 0x87 0x0 0x3a
2024-08-16 19:42:29,624 DEBUG [16020,MainThread] [pymodbus.logging] [logging.py:103]: Factory Request[ReadHoldingRegistersRequest': 3]
2024-08-16 19:42:29,625 DEBUG [16020,MainThread] [pymodbus.logging] [logging.py:103]: validate: fc-[3] address-40072: count-58
2024-08-16 19:42:29,625 DEBUG [16020,MainThread] [pymodbus.logging] [logging.py:103]: getValues: fc-[3] address-40072: count-58
2024-08-16 19:42:29,626 DEBUG [16020,MainThread] [pymodbus.logging] [logging.py:103]: send: 0x0 0x32 0x0 0x0 0x0 0x77 0x2 0x3 0x74 0x0 0x0 0x0 0x0 0x0 0x0 0x0 0x0 0x0 0x0 0x0 0x0 0x0 0x0 0x0 0x0 0x0 0x0 0x0 0x0 0x0 0x0 0x0 0x0 0x0 0x0 0x0 0x0 0x0 0x0 0x0 0x0 0x0 0x0 0x0 0x0 0x0 0x0 0x0 0x0 0x0 0x0 0x0 0x0 0x0 0x0 0x0 0x0 0x0 0x0 0x0 0x0 0xbf 0x80 0x0 0x0 0x0 0x0 0x0 0x0 0x0 0x0 0x0 0x0 0x0 0x0 0x0 0x0 0x0 0x0 0x0 0x0 0x0 0x0 0x0 0x0 0x0 0x0 0x0 0x0 0x0 0x0 0x0 0x0 0x0 0x0 0x0 0x0 0x0 0x0 0x0 0x0 0x0 0x0 0x0 0x0 0x0 0x0 0x0 0x0 0x0 0x0 0x0 0x0 0x0 0x0 0x0 0x0 0x0 0x0 0x0 0x0 0x0 0x0 0x0 0x0
2024-08-16 19:42:29,636 DEBUG [16020,MainThread] [pymodbus.logging] [logging.py:103]: recv: 0x0 0x33 0x0 0x0 0x0 0x6 0x2 0x3 0x9d 0x1 0x0 0x2 old_data:  addr=None
2024-08-16 19:42:29,636 DEBUG [16020,MainThread] [pymodbus.logging] [logging.py:103]: Handling data: 0x0 0x33 0x0 0x0 0x0 0x6 0x2 0x3 0x9d 0x1 0x0 0x2
2024-08-16 19:42:29,637 DEBUG [16020,MainThread] [pymodbus.logging] [logging.py:103]: Processing: 0x0 0x33 0x0 0x0 0x0 0x6 0x2 0x3 0x9d 0x1 0x0 0x2
2024-08-16 19:42:29,637 DEBUG [16020,MainThread] [pymodbus.logging] [logging.py:103]: Factory Request[ReadHoldingRegistersRequest': 3]
2024-08-16 19:42:29,638 DEBUG [16020,MainThread] [pymodbus.logging] [logging.py:103]: validate: fc-[3] address-40194: count-2
2024-08-16 19:42:29,638 DEBUG [16020,MainThread] [pymodbus.logging] [logging.py:103]: getValues: fc-[3] address-40194: count-2
2024-08-16 19:42:29,639 DEBUG [16020,MainThread] [pymodbus.logging] [logging.py:103]: send: 0x0 0x33 0x0 0x0 0x0 0x7 0x2 0x3 0x4 0x0 0x0 0x0 0x0
2024-08-16 19:42:30,284 DEBUG [16020,MainThread] [pymodbus.logging] [logging.py:103]: -> transport: received eof
2024-08-16 19:42:30,284 DEBUG [16020,MainThread] [pymodbus.logging] [logging.py:103]: Connection lost server due to None
2024-08-16 19:42:30,284 DEBUG [16020,MainThread] [pymodbus.logging] [logging.py:103]: Handler for stream [server] has been canceled
2024-08-16 19:42:30,646 DEBUG [16020,MainThread] [pymodbus.logging] [logging.py:103]: Connected to server
2024-08-16 19:42:30,647 DEBUG [16020,MainThread] [pymodbus.logging] [logging.py:103]: recv: 0x0 0x1 0x0 0x0 0x0 0x6 0x2 0x3 0x3 0x0 0x0 0x1 old_data:  addr=None
2024-08-16 19:42:30,647 DEBUG [16020,MainThread] [pymodbus.logging] [logging.py:103]: Handling data: 0x0 0x1 0x0 0x0 0x0 0x6 0x2 0x3 0x3 0x0 0x0 0x1
2024-08-16 19:42:30,647 DEBUG [16020,MainThread] [pymodbus.logging] [logging.py:103]: Processing: 0x0 0x1 0x0 0x0 0x0 0x6 0x2 0x3 0x3 0x0 0x0 0x1
2024-08-16 19:42:30,647 DEBUG [16020,MainThread] [pymodbus.logging] [logging.py:103]: Factory Request[ReadHoldingRegistersRequest': 3]
2024-08-16 19:42:30,647 DEBUG [16020,MainThread] [pymodbus.logging] [logging.py:103]: validate: fc-[3] address-769: count-1
2024-08-16 19:42:30,647 ERROR [16020,MainThread] [pymodbus.logging] [logging.py:115]: Exception response Exception Response(131, 3, IllegalAddress)
2024-08-16 19:42:30,647 DEBUG [16020,MainThread] [pymodbus.logging] [logging.py:103]: send: 0x0 0x1 0x0 0x0 0x0 0x3 0x2 0x83 0x2
2024-08-16 19:42:30,655 DEBUG [16020,MainThread] [pymodbus.logging] [logging.py:103]: recv: 0x0 0x2 0x0 0x0 0x0 0x6 0x2 0x3 0x3 0x0 0x0 0x1 old_data:  addr=None
2024-08-16 19:42:30,655 DEBUG [16020,MainThread] [pymodbus.logging] [logging.py:103]: Handling data: 0x0 0x2 0x0 0x0 0x0 0x6 0x2 0x3 0x3 0x0 0x0 0x1
2024-08-16 19:42:30,655 DEBUG [16020,MainThread] [pymodbus.logging] [logging.py:103]: Processing: 0x0 0x2 0x0 0x0 0x0 0x6 0x2 0x3 0x3 0x0 0x0 0x1
2024-08-16 19:42:30,656 DEBUG [16020,MainThread] [pymodbus.logging] [logging.py:103]: Factory Request[ReadHoldingRegistersRequest': 3]
2024-08-16 19:42:30,656 DEBUG [16020,MainThread] [pymodbus.logging] [logging.py:103]: validate: fc-[3] address-769: count-1
2024-08-16 19:42:30,656 ERROR [16020,MainThread] [pymodbus.logging] [logging.py:115]: Exception response Exception Response(131, 3, IllegalAddress)
2024-08-16 19:42:30,656 DEBUG [16020,MainThread] [pymodbus.logging] [logging.py:103]: send: 0x0 0x2 0x0 0x0 0x0 0x3 0x2 0x83 0x2
2024-08-16 19:42:30,661 DEBUG [16020,MainThread] [pymodbus.logging] [logging.py:103]: recv: 0x0 0x3 0x0 0x0 0x0 0x6 0x2 0x3 0x3 0x0 0x0 0x1 old_data:  addr=None
2024-08-16 19:42:30,661 DEBUG [16020,MainThread] [pymodbus.logging] [logging.py:103]: Handling data: 0x0 0x3 0x0 0x0 0x0 0x6 0x2 0x3 0x3 0x0 0x0 0x1
2024-08-16 19:42:30,661 DEBUG [16020,MainThread] [pymodbus.logging] [logging.py:103]: Processing: 0x0 0x3 0x0 0x0 0x0 0x6 0x2 0x3 0x3 0x0 0x0 0x1
2024-08-16 19:42:30,661 DEBUG [16020,MainThread] [pymodbus.logging] [logging.py:103]: Factory Request[ReadHoldingRegistersRequest': 3]
2024-08-16 19:42:30,661 DEBUG [16020,MainThread] [pymodbus.logging] [logging.py:103]: validate: fc-[3] address-769: count-1
2024-08-16 19:42:30,661 ERROR [16020,MainThread] [pymodbus.logging] [logging.py:115]: Exception response Exception Response(131, 3, IllegalAddress)
2024-08-16 19:42:30,662 DEBUG [16020,MainThread] [pymodbus.logging] [logging.py:103]: send: 0x0 0x3 0x0 0x0 0x0 0x3 0x2 0x83 0x2
2024-08-16 19:42:30,664 DEBUG [16020,MainThread] [pymodbus.logging] [logging.py:103]: recv: 0x0 0x4 0x0 0x0 0x0 0x6 0x2 0x3 0x6 0xaa 0x0 0x1 old_data:  addr=None
2024-08-16 19:42:30,664 DEBUG [16020,MainThread] [pymodbus.logging] [logging.py:103]: Handling data: 0x0 0x4 0x0 0x0 0x0 0x6 0x2 0x3 0x6 0xaa 0x0 0x1
2024-08-16 19:42:30,664 DEBUG [16020,MainThread] [pymodbus.logging] [logging.py:103]: Processing: 0x0 0x4 0x0 0x0 0x0 0x6 0x2 0x3 0x6 0xaa 0x0 0x1
2024-08-16 19:42:30,665 DEBUG [16020,MainThread] [pymodbus.logging] [logging.py:103]: Factory Request[ReadHoldingRegistersRequest': 3]
2024-08-16 19:42:30,665 DEBUG [16020,MainThread] [pymodbus.logging] [logging.py:103]: validate: fc-[3] address-1707: count-1
2024-08-16 19:42:30,665 ERROR [16020,MainThread] [pymodbus.logging] [logging.py:115]: Exception response Exception Response(131, 3, IllegalAddress)
2024-08-16 19:42:30,665 DEBUG [16020,MainThread] [pymodbus.logging] [logging.py:103]: send: 0x0 0x4 0x0 0x0 0x0 0x3 0x2 0x83 0x2
2024-08-16 19:42:30,667 DEBUG [16020,MainThread] [pymodbus.logging] [logging.py:103]: recv: 0x0 0x5 0x0 0x0 0x0 0x6 0x2 0x3 0x6 0xaa 0x0 0x1 old_data:  addr=None
2024-08-16 19:42:30,667 DEBUG [16020,MainThread] [pymodbus.logging] [logging.py:103]: Handling data: 0x0 0x5 0x0 0x0 0x0 0x6 0x2 0x3 0x6 0xaa 0x0 0x1
2024-08-16 19:42:30,667 DEBUG [16020,MainThread] [pymodbus.logging] [logging.py:103]: Processing: 0x0 0x5 0x0 0x0 0x0 0x6 0x2 0x3 0x6 0xaa 0x0 0x1
2024-08-16 19:42:30,667 DEBUG [16020,MainThread] [pymodbus.logging] [logging.py:103]: Factory Request[ReadHoldingRegistersRequest': 3]
2024-08-16 19:42:30,667 DEBUG [16020,MainThread] [pymodbus.logging] [logging.py:103]: validate: fc-[3] address-1707: count-1
2024-08-16 19:42:30,669 ERROR [16020,MainThread] [pymodbus.logging] [logging.py:115]: Exception response Exception Response(131, 3, IllegalAddress)
2024-08-16 19:42:30,669 DEBUG [16020,MainThread] [pymodbus.logging] [logging.py:103]: send: 0x0 0x5 0x0 0x0 0x0 0x3 0x2 0x83 0x2
2024-08-16 19:42:30,672 DEBUG [16020,MainThread] [pymodbus.logging] [logging.py:103]: recv: 0x0 0x6 0x0 0x0 0x0 0x6 0x2 0x3 0x6 0xaa 0x0 0x1 old_data:  addr=None
2024-08-16 19:42:30,672 DEBUG [16020,MainThread] [pymodbus.logging] [logging.py:103]: Handling data: 0x0 0x6 0x0 0x0 0x0 0x6 0x2 0x3 0x6 0xaa 0x0 0x1
2024-08-16 19:42:30,672 DEBUG [16020,MainThread] [pymodbus.logging] [logging.py:103]: Processing: 0x0 0x6 0x0 0x0 0x0 0x6 0x2 0x3 0x6 0xaa 0x0 0x1
2024-08-16 19:42:30,672 DEBUG [16020,MainThread] [pymodbus.logging] [logging.py:103]: Factory Request[ReadHoldingRegistersRequest': 3]
2024-08-16 19:42:30,672 DEBUG [16020,MainThread] [pymodbus.logging] [logging.py:103]: validate: fc-[3] address-1707: count-1
2024-08-16 19:42:30,672 ERROR [16020,MainThread] [pymodbus.logging] [logging.py:115]: Exception response Exception Response(131, 3, IllegalAddress)
2024-08-16 19:42:30,672 DEBUG [16020,MainThread] [pymodbus.logging] [logging.py:103]: send: 0x0 0x6 0x0 0x0 0x0 0x3 0x2 0x83 0x2
2024-08-16 19:42:30,674 DEBUG [16020,MainThread] [pymodbus.logging] [logging.py:103]: recv: 0x0 0x7 0x0 0x0 0x0 0x6 0x2 0x3 0x6 0xaa 0x0 0x1 old_data:  addr=None
2024-08-16 19:42:30,674 DEBUG [16020,MainThread] [pymodbus.logging] [logging.py:103]: Handling data: 0x0 0x7 0x0 0x0 0x0 0x6 0x2 0x3 0x6 0xaa 0x0 0x1
2024-08-16 19:42:30,675 DEBUG [16020,MainThread] [pymodbus.logging] [logging.py:103]: Processing: 0x0 0x7 0x0 0x0 0x0 0x6 0x2 0x3 0x6 0xaa 0x0 0x1
2024-08-16 19:42:30,675 DEBUG [16020,MainThread] [pymodbus.logging] [logging.py:103]: Factory Request[ReadHoldingRegistersRequest': 3]
2024-08-16 19:42:30,675 DEBUG [16020,MainThread] [pymodbus.logging] [logging.py:103]: validate: fc-[3] address-1707: count-1
2024-08-16 19:42:30,675 ERROR [16020,MainThread] [pymodbus.logging] [logging.py:115]: Exception response Exception Response(131, 3, IllegalAddress)
2024-08-16 19:42:30,675 DEBUG [16020,MainThread] [pymodbus.logging] [logging.py:103]: send: 0x0 0x7 0x0 0x0 0x0 0x3 0x2 0x83 0x2
2024-08-16 19:42:30,677 DEBUG [16020,MainThread] [pymodbus.logging] [logging.py:103]: recv: 0x0 0x8 0x0 0x0 0x0 0x6 0x2 0x3 0x6 0xaa 0x0 0x1 old_data:  addr=None
2024-08-16 19:42:30,677 DEBUG [16020,MainThread] [pymodbus.logging] [logging.py:103]: Handling data: 0x0 0x8 0x0 0x0 0x0 0x6 0x2 0x3 0x6 0xaa 0x0 0x1
2024-08-16 19:42:30,677 DEBUG [16020,MainThread] [pymodbus.logging] [logging.py:103]: Processing: 0x0 0x8 0x0 0x0 0x0 0x6 0x2 0x3 0x6 0xaa 0x0 0x1
2024-08-16 19:42:30,677 DEBUG [16020,MainThread] [pymodbus.logging] [logging.py:103]: Factory Request[ReadHoldingRegistersRequest': 3]
2024-08-16 19:42:30,679 DEBUG [16020,MainThread] [pymodbus.logging] [logging.py:103]: validate: fc-[3] address-1707: count-1
2024-08-16 19:42:30,679 ERROR [16020,MainThread] [pymodbus.logging] [logging.py:115]: Exception response Exception Response(131, 3, IllegalAddress)
2024-08-16 19:42:30,679 DEBUG [16020,MainThread] [pymodbus.logging] [logging.py:103]: send: 0x0 0x8 0x0 0x0 0x0 0x3 0x2 0x83 0x2
2024-08-16 19:42:30,681 DEBUG [16020,MainThread] [pymodbus.logging] [logging.py:103]: recv: 0x0 0x9 0x0 0x0 0x0 0x6 0x2 0x3 0x6 0xaa 0x0 0x1 old_data:  addr=None
2024-08-16 19:42:30,681 DEBUG [16020,MainThread] [pymodbus.logging] [logging.py:103]: Handling data: 0x0 0x9 0x0 0x0 0x0 0x6 0x2 0x3 0x6 0xaa 0x0 0x1
2024-08-16 19:42:30,681 DEBUG [16020,MainThread] [pymodbus.logging] [logging.py:103]: Processing: 0x0 0x9 0x0 0x0 0x0 0x6 0x2 0x3 0x6 0xaa 0x0 0x1
2024-08-16 19:42:30,682 DEBUG [16020,MainThread] [pymodbus.logging] [logging.py:103]: Factory Request[ReadHoldingRegistersRequest': 3]
2024-08-16 19:42:30,682 DEBUG [16020,MainThread] [pymodbus.logging] [logging.py:103]: validate: fc-[3] address-1707: count-1
2024-08-16 19:42:30,682 ERROR [16020,MainThread] [pymodbus.logging] [logging.py:115]: Exception response Exception Response(131, 3, IllegalAddress)
2024-08-16 19:42:30,682 DEBUG [16020,MainThread] [pymodbus.logging] [logging.py:103]: send: 0x0 0x9 0x0 0x0 0x0 0x3 0x2 0x83 0x2
2024-08-16 19:42:30,687 DEBUG [16020,MainThread] [pymodbus.logging] [logging.py:103]: recv: 0x0 0xa 0x0 0x0 0x0 0x6 0x2 0x3 0xc3 0x50 0x0 0x2 old_data:  addr=None
2024-08-16 19:42:30,687 DEBUG [16020,MainThread] [pymodbus.logging] [logging.py:103]: Handling data: 0x0 0xa 0x0 0x0 0x0 0x6 0x2 0x3 0xc3 0x50 0x0 0x2
2024-08-16 19:42:30,687 DEBUG [16020,MainThread] [pymodbus.logging] [logging.py:103]: Processing: 0x0 0xa 0x0 0x0 0x0 0x6 0x2 0x3 0xc3 0x50 0x0 0x2
2024-08-16 19:42:30,687 DEBUG [16020,MainThread] [pymodbus.logging] [logging.py:103]: Factory Request[ReadHoldingRegistersRequest': 3]
2024-08-16 19:42:30,687 DEBUG [16020,MainThread] [pymodbus.logging] [logging.py:103]: validate: fc-[3] address-50001: count-2
2024-08-16 19:42:30,687 ERROR [16020,MainThread] [pymodbus.logging] [logging.py:115]: Exception response Exception Response(131, 3, IllegalAddress)
2024-08-16 19:42:30,687 DEBUG [16020,MainThread] [pymodbus.logging] [logging.py:103]: send: 0x0 0xa 0x0 0x0 0x0 0x3 0x2 0x83 0x2
2024-08-16 19:42:30,690 DEBUG [16020,MainThread] [pymodbus.logging] [logging.py:103]: recv: 0x0 0xb 0x0 0x0 0x0 0x6 0x2 0x3 0x9c 0x40 0x0 0x2 old_data:  addr=None
2024-08-16 19:42:30,691 DEBUG [16020,MainThread] [pymodbus.logging] [logging.py:103]: Handling data: 0x0 0xb 0x0 0x0 0x0 0x6 0x2 0x3 0x9c 0x40 0x0 0x2
2024-08-16 19:42:30,691 DEBUG [16020,MainThread] [pymodbus.logging] [logging.py:103]: Processing: 0x0 0xb 0x0 0x0 0x0 0x6 0x2 0x3 0x9c 0x40 0x0 0x2
2024-08-16 19:42:30,691 DEBUG [16020,MainThread] [pymodbus.logging] [logging.py:103]: Factory Request[ReadHoldingRegistersRequest': 3]
2024-08-16 19:42:30,691 DEBUG [16020,MainThread] [pymodbus.logging] [logging.py:103]: validate: fc-[3] address-40001: count-2
2024-08-16 19:42:30,691 DEBUG [16020,MainThread] [pymodbus.logging] [logging.py:103]: getValues: fc-[3] address-40001: count-2
2024-08-16 19:42:30,691 DEBUG [16020,MainThread] [pymodbus.logging] [logging.py:103]: send: 0x0 0xb 0x0 0x0 0x0 0x7 0x2 0x3 0x4 0x53 0x75 0x6e 0x53
2024-08-16 19:42:30,722 DEBUG [16020,MainThread] [pymodbus.logging] [logging.py:103]: Connected to server
2024-08-16 19:42:30,725 DEBUG [16020,MainThread] [pymodbus.logging] [logging.py:103]: recv: 0x0 0x1 0x0 0x0 0x0 0x6 0x2 0x3 0x9c 0x42 0x0 0x2 old_data:  addr=None
2024-08-16 19:42:30,725 DEBUG [16020,MainThread] [pymodbus.logging] [logging.py:103]: Handling data: 0x0 0x1 0x0 0x0 0x0 0x6 0x2 0x3 0x9c 0x42 0x0 0x2
2024-08-16 19:42:30,725 DEBUG [16020,MainThread] [pymodbus.logging] [logging.py:103]: Processing: 0x0 0x1 0x0 0x0 0x0 0x6 0x2 0x3 0x9c 0x42 0x0 0x2
2024-08-16 19:42:30,725 DEBUG [16020,MainThread] [pymodbus.logging] [logging.py:103]: Factory Request[ReadHoldingRegistersRequest': 3]
2024-08-16 19:42:30,725 DEBUG [16020,MainThread] [pymodbus.logging] [logging.py:103]: validate: fc-[3] address-40003: count-2
2024-08-16 19:42:30,725 DEBUG [16020,MainThread] [pymodbus.logging] [logging.py:103]: getValues: fc-[3] address-40003: count-2
2024-08-16 19:42:30,725 DEBUG [16020,MainThread] [pymodbus.logging] [logging.py:103]: send: 0x0 0x1 0x0 0x0 0x0 0x7 0x2 0x3 0x4 0x0 0x1 0x0 0x41
2024-08-16 19:42:30,759 DEBUG [16020,MainThread] [pymodbus.logging] [logging.py:103]: recv: 0x0 0x2 0x0 0x0 0x0 0x6 0x2 0x3 0x9c 0x85 0x0 0x2 old_data:  addr=None
2024-08-16 19:42:30,759 DEBUG [16020,MainThread] [pymodbus.logging] [logging.py:103]: Handling data: 0x0 0x2 0x0 0x0 0x0 0x6 0x2 0x3 0x9c 0x85 0x0 0x2
2024-08-16 19:42:30,759 DEBUG [16020,MainThread] [pymodbus.logging] [logging.py:103]: Processing: 0x0 0x2 0x0 0x0 0x0 0x6 0x2 0x3 0x9c 0x85 0x0 0x2
2024-08-16 19:42:30,759 DEBUG [16020,MainThread] [pymodbus.logging] [logging.py:103]: Factory Request[ReadHoldingRegistersRequest': 3]
2024-08-16 19:42:30,759 DEBUG [16020,MainThread] [pymodbus.logging] [logging.py:103]: validate: fc-[3] address-40070: count-2
2024-08-16 19:42:30,759 DEBUG [16020,MainThread] [pymodbus.logging] [logging.py:103]: getValues: fc-[3] address-40070: count-2
2024-08-16 19:42:30,759 DEBUG [16020,MainThread] [pymodbus.logging] [logging.py:103]: send: 0x0 0x2 0x0 0x0 0x0 0x7 0x2 0x3 0x4 0x0 0xd5 0x0 0x7c
2024-08-16 19:42:30,833 DEBUG [16020,MainThread] [pymodbus.logging] [logging.py:103]: recv: 0x0 0x3 0x0 0x0 0x0 0x6 0x2 0x3 0x9d 0x3 0x0 0x2 old_data:  addr=None
2024-08-16 19:42:30,834 DEBUG [16020,MainThread] [pymodbus.logging] [logging.py:103]: Handling data: 0x0 0x3 0x0 0x0 0x0 0x6 0x2 0x3 0x9d 0x3 0x0 0x2
2024-08-16 19:42:30,834 DEBUG [16020,MainThread] [pymodbus.logging] [logging.py:103]: Processing: 0x0 0x3 0x0 0x0 0x0 0x6 0x2 0x3 0x9d 0x3 0x0 0x2
2024-08-16 19:42:30,834 DEBUG [16020,MainThread] [pymodbus.logging] [logging.py:103]: Factory Request[ReadHoldingRegistersRequest': 3]
2024-08-16 19:42:30,834 DEBUG [16020,MainThread] [pymodbus.logging] [logging.py:103]: validate: fc-[3] address-40196: count-2
2024-08-16 19:42:30,834 DEBUG [16020,MainThread] [pymodbus.logging] [logging.py:103]: getValues: fc-[3] address-40196: count-2
2024-08-16 19:42:30,834 DEBUG [16020,MainThread] [pymodbus.logging] [logging.py:103]: send: 0x0 0x3 0x0 0x0 0x0 0x7 0x2 0x3 0x4 0xff 0xff 0x0 0x0
2024-08-16 19:42:30,843 DEBUG [16020,MainThread] [pymodbus.logging] [logging.py:103]: recv: 0x0 0x4 0x0 0x0 0x0 0x6 0x2 0x3 0x9c 0x44 0x0 0x42 old_data:  addr=None
2024-08-16 19:42:30,843 DEBUG [16020,MainThread] [pymodbus.logging] [logging.py:103]: Handling data: 0x0 0x4 0x0 0x0 0x0 0x6 0x2 0x3 0x9c 0x44 0x0 0x42
2024-08-16 19:42:30,843 DEBUG [16020,MainThread] [pymodbus.logging] [logging.py:103]: Processing: 0x0 0x4 0x0 0x0 0x0 0x6 0x2 0x3 0x9c 0x44 0x0 0x42
2024-08-16 19:42:30,843 DEBUG [16020,MainThread] [pymodbus.logging] [logging.py:103]: Factory Request[ReadHoldingRegistersRequest': 3]
2024-08-16 19:42:30,843 DEBUG [16020,MainThread] [pymodbus.logging] [logging.py:103]: validate: fc-[3] address-40005: count-66
2024-08-16 19:42:30,843 DEBUG [16020,MainThread] [pymodbus.logging] [logging.py:103]: getValues: fc-[3] address-40005: count-66
2024-08-16 19:42:30,843 DEBUG [16020,MainThread] [pymodbus.logging] [logging.py:103]: send: 0x0 0x4 0x0 0x0 0x0 0x87 0x2 0x3 0x84 0x0 0x46 0x0 0x72 0x0 0x6f 0x0 0x6e 0x0 0x69 0x0 0x75 0x0 0x73 0x0 0x0 0x0 0x0 0x0 0x0 0x0 0x0 0x0 0x0 0x0 0x0 0x0 0x0 0x0 0x0 0x0 0x0 0x0 0x53 0x0 0x6d 0x0 0x61 0x0 0x72 0x0 0x74 0x0 0x20 0x0 0x4d 0x0 0x65 0x0 0x74 0x0 0x65 0x0 0x72 0x0 0x20 0x0 0x36 0x0 0x33 0x0 0x41 0x0 0x0 0x0 0x0 0x0 0x0 0x0 0x0 0x0 0x0 0x0 0x0 0x0 0x0 0x0 0x0 0x0 0x0 0x0 0x0 0x0 0x0 0x0 0x0 0x0 0x0 0x0 0x0 0x0 0x0 0x0 0x0 0x0 0x0 0x0 0x30 0x0 0x30 0x0 0x30 0x0 0x30 0x0 0x30 0x0 0x30 0x0 0x30 0x0 0x31 0x0 0x0 0x0 0x0 0x0 0x0 0x0 0x0 0x0 0x0 0x0 0x0 0x0 0x0 0x0 0x0 0x0 0xf1 0x0 0xd5
2024-08-16 19:42:31,107 DEBUG [16020,MainThread] [pymodbus.logging] [logging.py:103]: recv: 0x0 0x5 0x0 0x0 0x0 0x6 0x2 0x3 0x9c 0x87 0x0 0x3a old_data:  addr=None
2024-08-16 19:42:31,107 DEBUG [16020,MainThread] [pymodbus.logging] [logging.py:103]: Handling data: 0x0 0x5 0x0 0x0 0x0 0x6 0x2 0x3 0x9c 0x87 0x0 0x3a
2024-08-16 19:42:31,107 DEBUG [16020,MainThread] [pymodbus.logging] [logging.py:103]: Processing: 0x0 0x5 0x0 0x0 0x0 0x6 0x2 0x3 0x9c 0x87 0x0 0x3a
2024-08-16 19:42:31,107 DEBUG [16020,MainThread] [pymodbus.logging] [logging.py:103]: Factory Request[ReadHoldingRegistersRequest': 3]
2024-08-16 19:42:31,107 DEBUG [16020,MainThread] [pymodbus.logging] [logging.py:103]: validate: fc-[3] address-40072: count-58
2024-08-16 19:42:31,108 DEBUG [16020,MainThread] [pymodbus.logging] [logging.py:103]: getValues: fc-[3] address-40072: count-58
2024-08-16 19:42:31,108 DEBUG [16020,MainThread] [pymodbus.logging] [logging.py:103]: send: 0x0 0x5 0x0 0x0 0x0 0x77 0x2 0x3 0x74 0x0 0x0 0x0 0x0 0x0 0x0 0x0 0x0 0x0 0x0 0x0 0x0 0x0 0x0 0x0 0x0 0x0 0x0 0x0 0x0 0x0 0x0 0x0 0x0 0x0 0x0 0x0 0x0 0x0 0x0 0x0 0x0 0x0 0x0 0x0 0x0 0x0 0x0 0x0 0x0 0x0 0x0 0x0 0x0 0x0 0x0 0x0 0x0 0x0 0x0 0x0 0x0 0xbf 0x80 0x0 0x0 0x0 0x0 0x0 0x0 0x0 0x0 0x0 0x0 0x0 0x0 0x0 0x0 0x0 0x0 0x0 0x0 0x0 0x0 0x0 0x0 0x0 0x0 0x0 0x0 0x0 0x0 0x0 0x0 0x0 0x0 0x0 0x0 0x0 0x0 0x0 0x0 0x0 0x0 0x0 0x0 0x0 0x0 0x0 0x0 0x0 0x0 0x0 0x0 0x0 0x0 0x0 0x0 0x0 0x0 0x0 0x0 0x0 0x0 0x0 0x0
2024-08-16 19:42:31,117 DEBUG [16020,MainThread] [pymodbus.logging] [logging.py:103]: recv: 0x0 0x6 0x0 0x0 0x0 0x6 0x2 0x3 0x9d 0x1 0x0 0x2 old_data:  addr=None
2024-08-16 19:42:31,117 DEBUG [16020,MainThread] [pymodbus.logging] [logging.py:103]: Handling data: 0x0 0x6 0x0 0x0 0x0 0x6 0x2 0x3 0x9d 0x1 0x0 0x2
2024-08-16 19:42:31,117 DEBUG [16020,MainThread] [pymodbus.logging] [logging.py:103]: Processing: 0x0 0x6 0x0 0x0 0x0 0x6 0x2 0x3 0x9d 0x1 0x0 0x2
2024-08-16 19:42:31,117 DEBUG [16020,MainThread] [pymodbus.logging] [logging.py:103]: Factory Request[ReadHoldingRegistersRequest': 3]
2024-08-16 19:42:31,117 DEBUG [16020,MainThread] [pymodbus.logging] [logging.py:103]: validate: fc-[3] address-40194: count-2
2024-08-16 19:42:31,117 DEBUG [16020,MainThread] [pymodbus.logging] [logging.py:103]: getValues: fc-[3] address-40194: count-2
2024-08-16 19:42:31,117 DEBUG [16020,MainThread] [pymodbus.logging] [logging.py:103]: send: 0x0 0x6 0x0 0x0 0x0 0x7 0x2 0x3 0x4 0x0 0x0 0x0 0x0
2024-08-16 19:42:31,142 DEBUG [16020,MainThread] [pymodbus.logging] [logging.py:103]: recv: 0x0 0x7 0x0 0x0 0x0 0x6 0x2 0x3 0x9c 0xc1 0x0 0x20 old_data:  addr=None
2024-08-16 19:42:31,142 DEBUG [16020,MainThread] [pymodbus.logging] [logging.py:103]: Handling data: 0x0 0x7 0x0 0x0 0x0 0x6 0x2 0x3 0x9c 0xc1 0x0 0x20
2024-08-16 19:42:31,142 DEBUG [16020,MainThread] [pymodbus.logging] [logging.py:103]: Processing: 0x0 0x7 0x0 0x0 0x0 0x6 0x2 0x3 0x9c 0xc1 0x0 0x20
2024-08-16 19:42:31,142 DEBUG [16020,MainThread] [pymodbus.logging] [logging.py:103]: Factory Request[ReadHoldingRegistersRequest': 3]
2024-08-16 19:42:31,143 DEBUG [16020,MainThread] [pymodbus.logging] [logging.py:103]: validate: fc-[3] address-40130: count-32
2024-08-16 19:42:31,143 DEBUG [16020,MainThread] [pymodbus.logging] [logging.py:103]: getValues: fc-[3] address-40130: count-32
2024-08-16 19:42:31,143 DEBUG [16020,MainThread] [pymodbus.logging] [logging.py:103]: send: 0x0 0x7 0x0 0x0 0x0 0x43 0x2 0x3 0x40 0x44 0x7a 0x0 0x0 0x0 0x0 0x0 0x0 0x0 0x0 0x0 0x0 0x0 0x0 0x0 0x0 0x44 0x7a 0x0 0x0 0x0 0x0 0x0 0x0 0x0 0x0 0x0 0x0 0x0 0x0 0x0 0x0 0x0 0x0 0x0 0x0 0x0 0x0 0x0 0x0 0x0 0x0 0x0 0x0 0x0 0x0 0x0 0x0 0x0 0x0 0x0 0x0 0x0 0x0 0x0 0x0 0x0 0x0 0x0 0x0 0x0 0x0 0x0 0x0
2024-08-16 19:42:31,238 DEBUG [16020,MainThread] [pymodbus.logging] [logging.py:103]: -> transport: received eof
2024-08-16 19:42:31,238 DEBUG [16020,MainThread] [pymodbus.logging] [logging.py:103]: Connection lost server due to None
2024-08-16 19:42:31,238 DEBUG [16020,MainThread] [pymodbus.logging] [logging.py:103]: Handler for stream [server] has been canceled
2024-08-16 19:42:32,108 DEBUG [16020,MainThread] [pymodbus.logging] [logging.py:103]: recv: 0x0 0x8 0x0 0x0 0x0 0x6 0x2 0x3 0x9c 0x87 0x0 0x3a old_data:  addr=None
2024-08-16 19:42:32,108 DEBUG [16020,MainThread] [pymodbus.logging] [logging.py:103]: Handling data: 0x0 0x8 0x0 0x0 0x0 0x6 0x2 0x3 0x9c 0x87 0x0 0x3a
2024-08-16 19:42:32,108 DEBUG [16020,MainThread] [pymodbus.logging] [logging.py:103]: Processing: 0x0 0x8 0x0 0x0 0x0 0x6 0x2 0x3 0x9c 0x87 0x0 0x3a
2024-08-16 19:42:32,108 DEBUG [16020,MainThread] [pymodbus.logging] [logging.py:103]: Factory Request[ReadHoldingRegistersRequest': 3]
2024-08-16 19:42:32,109 DEBUG [16020,MainThread] [pymodbus.logging] [logging.py:103]: validate: fc-[3] address-40072: count-58
2024-08-16 19:42:32,109 DEBUG [16020,MainThread] [pymodbus.logging] [logging.py:103]: getValues: fc-[3] address-40072: count-58
2024-08-16 19:42:32,109 DEBUG [16020,MainThread] [pymodbus.logging] [logging.py:103]: send: 0x0 0x8 0x0 0x0 0x0 0x77 0x2 0x3 0x74 0x0 0x0 0x0 0x0 0x0 0x0 0x0 0x0 0x0 0x0 0x0 0x0 0x0 0x0 0x0 0x0 0x0 0x0 0x0 0x0 0x0 0x0 0x0 0x0 0x0 0x0 0x0 0x0 0x0 0x0 0x0 0x0 0x0 0x0 0x0 0x0 0x0 0x0 0x0 0x0 0x0 0x0 0x0 0x0 0x0 0x0 0x0 0x0 0x0 0x0 0x0 0x0 0xbf 0x80 0x0 0x0 0x0 0x0 0x0 0x0 0x0 0x0 0x0 0x0 0x0 0x0 0x0 0x0 0x0 0x0 0x0 0x0 0x0 0x0 0x0 0x0 0x0 0x0 0x0 0x0 0x0 0x0 0x0 0x0 0x0 0x0 0x0 0x0 0x0 0x0 0x0 0x0 0x0 0x0 0x0 0x0 0x0 0x0 0x0 0x0 0x0 0x0 0x0 0x0 0x0 0x0 0x0 0x0 0x0 0x0 0x0 0x0 0x0 0x0 0x0 0x0
2024-08-16 19:42:32,121 DEBUG [16020,MainThread] [pymodbus.logging] [logging.py:103]: recv: 0x0 0x9 0x0 0x0 0x0 0x6 0x2 0x3 0x9d 0x1 0x0 0x2 old_data:  addr=None
2024-08-16 19:42:32,122 DEBUG [16020,MainThread] [pymodbus.logging] [logging.py:103]: Handling data: 0x0 0x9 0x0 0x0 0x0 0x6 0x2 0x3 0x9d 0x1 0x0 0x2
2024-08-16 19:42:32,122 DEBUG [16020,MainThread] [pymodbus.logging] [logging.py:103]: Processing: 0x0 0x9 0x0 0x0 0x0 0x6 0x2 0x3 0x9d 0x1 0x0 0x2
2024-08-16 19:42:32,122 DEBUG [16020,MainThread] [pymodbus.logging] [logging.py:103]: Factory Request[ReadHoldingRegistersRequest': 3]
2024-08-16 19:42:32,122 DEBUG [16020,MainThread] [pymodbus.logging] [logging.py:103]: validate: fc-[3] address-40194: count-2
2024-08-16 19:42:32,122 DEBUG [16020,MainThread] [pymodbus.logging] [logging.py:103]: getValues: fc-[3] address-40194: count-2
2024-08-16 19:42:32,122 DEBUG [16020,MainThread] [pymodbus.logging] [logging.py:103]: send: 0x0 0x9 0x0 0x0 0x0 0x7 0x2 0x3 0x4 0x0 0x0 0x0 0x0
2024-08-16 19:42:33,107 DEBUG [16020,MainThread] [pymodbus.logging] [logging.py:103]: recv: 0x0 0xa 0x0 0x0 0x0 0x6 0x2 0x3 0x9c 0x87 0x0 0x3a old_data:  addr=None
2024-08-16 19:42:33,108 DEBUG [16020,MainThread] [pymodbus.logging] [logging.py:103]: Handling data: 0x0 0xa 0x0 0x0 0x0 0x6 0x2 0x3 0x9c 0x87 0x0 0x3a
2024-08-16 19:42:33,108 DEBUG [16020,MainThread] [pymodbus.logging] [logging.py:103]: Processing: 0x0 0xa 0x0 0x0 0x0 0x6 0x2 0x3 0x9c 0x87 0x0 0x3a
2024-08-16 19:42:33,108 DEBUG [16020,MainThread] [pymodbus.logging] [logging.py:103]: Factory Request[ReadHoldingRegistersRequest': 3]
2024-08-16 19:42:33,109 DEBUG [16020,MainThread] [pymodbus.logging] [logging.py:103]: validate: fc-[3] address-40072: count-58
2024-08-16 19:42:33,109 DEBUG [16020,MainThread] [pymodbus.logging] [logging.py:103]: getValues: fc-[3] address-40072: count-58
2024-08-16 19:42:33,110 DEBUG [16020,MainThread] [pymodbus.logging] [logging.py:103]: send: 0x0 0xa 0x0 0x0 0x0 0x77 0x2 0x3 0x74 0x0 0x0 0x0 0x0 0x0 0x0 0x0 0x0 0x0 0x0 0x0 0x0 0x0 0x0 0x0 0x0 0x0 0x0 0x0 0x0 0x0 0x0 0x0 0x0 0x0 0x0 0x0 0x0 0x0 0x0 0x0 0x0 0x0 0x0 0x0 0x0 0x0 0x0 0x0 0x0 0x0 0x0 0x0 0x0 0x0 0x0 0x0 0x0 0x0 0x0 0x0 0x0 0xbf 0x80 0x0 0x0 0x0 0x0 0x0 0x0 0x0 0x0 0x0 0x0 0x0 0x0 0x0 0x0 0x0 0x0 0x0 0x0 0x0 0x0 0x0 0x0 0x0 0x0 0x0 0x0 0x0 0x0 0x0 0x0 0x0 0x0 0x0 0x0 0x0 0x0 0x0 0x0 0x0 0x0 0x0 0x0 0x0 0x0 0x0 0x0 0x0 0x0 0x0 0x0 0x0 0x0 0x0 0x0 0x0 0x0 0x0 0x0 0x0 0x0 0x0 0x0
2024-08-16 19:42:33,118 DEBUG [16020,MainThread] [pymodbus.logging] [logging.py:103]: recv: 0x0 0xb 0x0 0x0 0x0 0x6 0x2 0x3 0x9d 0x1 0x0 0x2 old_data:  addr=None
2024-08-16 19:42:33,118 DEBUG [16020,MainThread] [pymodbus.logging] [logging.py:103]: Handling data: 0x0 0xb 0x0 0x0 0x0 0x6 0x2 0x3 0x9d 0x1 0x0 0x2
2024-08-16 19:42:33,118 DEBUG [16020,MainThread] [pymodbus.logging] [logging.py:103]: Processing: 0x0 0xb 0x0 0x0 0x0 0x6 0x2 0x3 0x9d 0x1 0x0 0x2
2024-08-16 19:42:33,119 DEBUG [16020,MainThread] [pymodbus.logging] [logging.py:103]: Factory Request[ReadHoldingRegistersRequest': 3]
2024-08-16 19:42:33,119 DEBUG [16020,MainThread] [pymodbus.logging] [logging.py:103]: validate: fc-[3] address-40194: count-2
2024-08-16 19:42:33,119 DEBUG [16020,MainThread] [pymodbus.logging] [logging.py:103]: getValues: fc-[3] address-40194: count-2
2024-08-16 19:42:33,119 DEBUG [16020,MainThread] [pymodbus.logging] [logging.py:103]: send: 0x0 0xb 0x0 0x0 0x0 0x7 0x2 0x3 0x4 0x0 0x0 0x0 0x0
2024-08-16 19:42:34,107 DEBUG [16020,MainThread] [pymodbus.logging] [logging.py:103]: recv: 0x0 0xc 0x0 0x0 0x0 0x6 0x2 0x3 0x9c 0x87 0x0 0x3a old_data:  addr=None
2024-08-16 19:42:34,107 DEBUG [16020,MainThread] [pymodbus.logging] [logging.py:103]: Handling data: 0x0 0xc 0x0 0x0 0x0 0x6 0x2 0x3 0x9c 0x87 0x0 0x3a
2024-08-16 19:42:34,107 DEBUG [16020,MainThread] [pymodbus.logging] [logging.py:103]: Processing: 0x0 0xc 0x0 0x0 0x0 0x6 0x2 0x3 0x9c 0x87 0x0 0x3a
2024-08-16 19:42:34,108 DEBUG [16020,MainThread] [pymodbus.logging] [logging.py:103]: Factory Request[ReadHoldingRegistersRequest': 3]
2024-08-16 19:42:34,108 DEBUG [16020,MainThread] [pymodbus.logging] [logging.py:103]: validate: fc-[3] address-40072: count-58
